(1681411565.913761) vcan0 125#C38CDD43C3B4517F
(1681411565.913760) vcan0 105#D7B64F1BC792FC5F
(1681411565.913766) vcan0 114#3EAF7006B4073C76
(1681411565.913765) vcan0 104#B0BA480DD752BD43
(1681411565.913772) vcan0 100#4E2FB80F09258A03
(1681411565.913773) vcan0 118#FA3CB10912FD6279
(1681411565.913778) vcan0 101#66350C08230FA62B
(1681411565.913803) vcan0 116#62147C4A78BC9B67
(1681411565.913833) vcan0 106#C3742B71B536FD4A
(1681411565.913835) vcan0 102#B9BF3B0969ED8C0B
(1681411565.913837) vcan0 122#997AD810AA287B43
(1681411565.913839) vcan0 117#1302BB55A8674944
(1681411565.913841) vcan0 107#6E4E7144F0698023
(1681411565.913844) vcan0 113#CA5DBE458A63AB67
(1681411565.913846) vcan0 115#96A1FB6B97EB7B3D
(1681411565.913888) vcan0 121#CCB173732E4E9A1F
(1681411565.913886) vcan0 110#BE1D940C297A7E7E
(1681411565.913890) vcan0 111#B2291D3DF3DD5814
(1681411565.913889) vcan0 123#B9E0BB4882C18248
(1681411565.913897) vcan0 120#014AF6471FEF0702
(1681411565.913903) vcan0 108#93338B4E5E3CDA3B
(1681411565.913913) vcan0 103#98C4F5006F37FC76
(1681411565.913931) vcan0 119#2072453FA535B568
(1681411565.913942) vcan0 112#D4230D5925292502
(1681411565.913973) vcan0 109#4A9B1F68893DD809
(1681411565.914006) vcan0 124#DF2A7B3EF0186941
(1681411566.114508) vcan0 107#B52BD96D69C5AC4B
(1681411566.114509) vcan0 113#34388A772912184A
(1681411566.114514) vcan0 122#264D5A6EB207BC31
(1681411566.114513) vcan0 125#FB9888695277BE65
(1681411566.114518) vcan0 115#AAE4862F7312BF19
(1681411566.114519) vcan0 119#0BEA2F1E6130AD4F
(1681411566.114524) vcan0 112#51EE9F7065638134
(1681411566.114523) vcan0 106#F40E033A46B94C45
(1681411566.114585) vcan0 101#A9C2E5766BAE7D44
(1681411566.114586) vcan0 116#B612ED34F387263B
(1681411566.114588) vcan0 105#81664848544D9A68
(1681411566.114589) vcan0 102#DA88D001A9B49A3E
(1681411566.114591) vcan0 111#117293156378BB65
(1681411566.114592) vcan0 123#8D48C07A30DD221C
(1681411566.114594) vcan0 108#4982B432560DF474
(1681411566.114595) vcan0 120#CB9449620057A870
(1681411566.114631) vcan0 121#010F41365119BD62
(1681411566.114632) vcan0 124#BE1F8756B8A37119
(1681411566.114635) vcan0 103#1961FF6E5BF39D20
(1681411566.114638) vcan0 117#7453081F7770B301
(1681411566.114639) vcan0 100#67427D5A77A5A854
(1681411566.114641) vcan0 114#858A081A09DFFA35
(1681411566.114642) vcan0 104#B00807386674F644
(1681411566.114673) vcan0 110#5435BC0CF5913F33
(1681411566.114679) vcan0 118#C84F35479BB1B35E
(1681411566.114707) vcan0 109#D81C472C372DF900
(1681411566.315122) vcan0 123#2B99A9553F5A0E57
(1681411566.315123) vcan0 117#AC29C46635152D63
(1681411566.315127) vcan0 102#3D0A21428F07864F
(1681411566.315128) vcan0 105#A415AB6CA5433424
(1681411566.315132) vcan0 114#BEF66D180869B262
(1681411566.315138) vcan0 104#7456C62D7B985E15
(1681411566.315135) vcan0 116#BA4EC84374623D34
(1681411566.315136) vcan0 101#5E6B9801F00FDF63
(1681411566.315195) vcan0 111#0A24CE0E88BD0A49
(1681411566.315203) vcan0 122#ADA6320418EC3F67
(1681411566.315202) vcan0 103#82EB3D599321711B
(1681411566.315205) vcan0 108#565B325999A7F509
(1681411566.315206) vcan0 120#4932304B9E37316F
(1681411566.315208) vcan0 110#1C51AD0CB191B136
(1681411566.315209) vcan0 121#D244B86DA2D6AC5A
(1681411566.315238) vcan0 118#E2862D01973AD456
(1681411566.315246) vcan0 125#CB889E51816D5B0B
(1681411566.315250) vcan0 112#0E799C41BC22912E
(1681411566.315251) vcan0 106#5EB9821B6853F662
(1681411566.315253) vcan0 113#1206C52BDD904759
(1681411566.315254) vcan0 124#0C1B74132F5A9723
(1681411566.315282) vcan0 119#CEEFDD654963B300
(1681411566.315297) vcan0 107#1939D653A882CB20
(1681411566.315298) vcan0 109#8E7FD81A193D405D
(1681411566.315301) vcan0 100#67BB5F49F368DD4C
(1681411566.315337) vcan0 115#2127A5793CB61E3B
(1681411566.515845) vcan0 106#7E17BF37CCF69B6D
(1681411566.515852) vcan0 105#2158AC7314D99D03
(1681411566.515847) vcan0 125#6078BD3B6212B114
(1681411566.515854) vcan0 124#D373664CA02BF846
(1681411566.515851) vcan0 113#17A73D063C86E174
(1681411566.515856) vcan0 112#90E8350B031C3824
(1681411566.515861) vcan0 111#099BB23B0B077D1C
(1681411566.515860) vcan0 118#161AFD277F142A5C
(1681411566.515923) vcan0 104#B559C60C0E7CDA03
(1681411566.515925) vcan0 100#EE97225DFB251155
(1681411566.515926) vcan0 102#ACC3AE09BB96E660
(1681411566.515928) vcan0 107#CE02B544FB484E16
(1681411566.515930) vcan0 109#20E3CB7DB61DF374
(1681411566.515932) vcan0 117#549338264CDE9742
(1681411566.515931) vcan0 120#0597F56C86B1E224
(1681411566.515967) vcan0 115#24A519004946D221
(1681411566.515972) vcan0 116#BDCA1C07953A2372
(1681411566.515973) vcan0 101#40159670D6781C35
(1681411566.515977) vcan0 108#995E876E28DA3E77
(1681411566.515976) vcan0 123#6807345885008475
(1681411566.515998) vcan0 114#BEDB234EF7D3EF3C
(1681411566.516018) vcan0 110#C44531546EB3CD00
(1681411566.516024) vcan0 121#BFA0D568D602492B
(1681411566.516023) vcan0 122#2E3C187E184B8E1B
(1681411566.516041) vcan0 119#708925766B2DC538
(1681411566.516048) vcan0 103#81A09F39833CC12F
(1681411566.716598) vcan0 122#DE78AF2AF9DA792B
(1681411566.716600) vcan0 112#0E1E195CD9D52B54
(1681411566.716601) vcan0 117#192B05712BE8D93A
(1681411566.716601) vcan0 101#B8C52256CA19B772
(1681411566.716602) vcan0 116#D4034F0360D3DB32
(1681411566.716604) vcan0 108#16833D38BFFEB53B
(1681411566.716603) vcan0 123#3448492ACE4A981A
(1681411566.716605) vcan0 115#8A3FF7484DE46D39
(1681411566.716633) vcan0 104#1B9D2B3CC8BDBA79
(1681411566.716633) vcan0 114#F6C1B7654E8E9A1D
(1681411566.716634) vcan0 105#65A3D07F2A90BF4B
(1681411566.716635) vcan0 124#B172011EDCFD6B7A
(1681411566.716635) vcan0 103#45ADFC2ACA663F4C
(1681411566.716636) vcan0 111#396AF21F621EC10F
(1681411566.716636) vcan0 118#29EC5B317FFB1133
(1681411566.716652) vcan0 109#68ADF459D6DD444A
(1681411566.716652) vcan0 106#5E71173718261D61
(1681411566.716653) vcan0 121#42F3340CCDF41F14
(1681411566.716654) vcan0 113#134AEE7EFB38F12D
(1681411566.716655) vcan0 119#6612261664972E3B
(1681411566.716655) vcan0 110#8718C14FF52C0548
(1681411566.716669) vcan0 107#8A64725319432D68
(1681411566.716672) vcan0 100#CCDDD22D124A3C4D
(1681411566.716678) vcan0 120#21C0046E229D0024
(1681411566.716680) vcan0 102#1D96E325B7A5C71F
(1681411566.716686) vcan0 125#74CE3958F6F3A44F
(1681411566.917337) vcan0 110#414715763FE3B341
(1681411566.917335) vcan0 119#4288E006E294DC45
(1681411566.917340) vcan0 106#578DA439360F8E00
(1681411566.917342) vcan0 109#0A4A0E16C7566437
(1681411566.917345) vcan0 100#6059174D0FF4D939
(1681411566.917346) vcan0 120#3DD1CD67FC3A1678
(1681411566.917350) vcan0 121#58603678D2934567
(1681411566.917351) vcan0 114#5A02B23A165F2B3E
(1681411566.917411) vcan0 123#3E53C6406085E51E
(1681411566.917416) vcan0 112#694CAD5D977A3D3B
(1681411566.917414) vcan0 117#A4A86B305765E02A
(1681411566.917419) vcan0 113#DF596736A1A2AD21
(1681411566.917418) vcan0 101#7CD3DE7D17D0B800
(1681411566.917422) vcan0 105#DFADEC1A4AB06F71
(1681411566.917421) vcan0 115#794BAC57AC92E17F
(1681411566.917459) vcan0 102#C09EB24F483E3403
(1681411566.917458) vcan0 107#0A8F1B2FE9BAED47
(1681411566.917461) vcan0 116#BD2375052D056961
(1681411566.917467) vcan0 125#05A26A428E68C51B
(1681411566.917466) vcan0 104#23FF17740DBDDC08
(1681411566.917488) vcan0 108#6B26906A86B00E70
(1681411566.917509) vcan0 118#28FA23455737BE00
(1681411566.917515) vcan0 103#AE346F440FFD9947
(1681411566.917532) vcan0 122#B34BBE7390986D3A
(1681411566.917550) vcan0 111#C84973344CE21D00
(1681411566.917577) vcan0 124#CCD35326B7DD4E25
(1681411567.117505) vcan0 109#AA9C5205FC2BC827
(1681411567.117509) vcan0 120#26A29E7105BA4555
(1681411567.117542) vcan0 123#CCD69672E7419059
(1681411567.117541) vcan0 119#00FE5613DDD13423
(1681411567.117582) vcan0 115#803A6A5E000EAF23
(1681411567.117591) vcan0 100#5002C52DC2FB5704
(1681411567.117593) vcan0 113#0BE4733426C7B92C
(1681411567.117596) vcan0 116#DBEC4674F6BE0B33
(1681411567.117608) vcan0 108#29153F2BD2B78913
(1681411567.117636) vcan0 125#79D0B767CDE7C966
(1681411567.117635) vcan0 104#CDD4BE0E9B544613
(1681411567.117642) vcan0 112#C381BD606F6A6F52
(1681411567.117660) vcan0 103#0A98132F11BFAE56
(1681411567.117662) vcan0 101#7DF7B1040D5B796C
(1681411567.117673) vcan0 105#D53F682F4C6C9D4D
(1681411567.117674) vcan0 122#88B8D026CE51A434
(1681411567.117678) vcan0 110#2CA96E14E9317170
(1681411567.117710) vcan0 121#54F8143716C0534F
(1681411567.117711) vcan0 118#8C24806E638F0002
(1681411567.117713) vcan0 111#D684B647141C021B
(1681411567.117724) vcan0 107#842D00697D683808
(1681411567.117742) vcan0 114#6AD19F5A1414EC48
(1681411567.117748) vcan0 117#73FCE25D0EE65961
(1681411567.117746) vcan0 102#0D105E11BE343F1F
(1681411567.117762) vcan0 124#EA799415BEFBB210
(1681411567.117780) vcan0 106#838A6336C92A5C33
(1681411567.317762) vcan0 119#AEC4342E5A6F1919
(1681411567.317765) vcan0 123#54340F6B08DF1656
(1681411567.317781) vcan0 105#50BE89597F026262
(1681411567.317800) vcan0 104#F49B2B66B6404230
(1681411567.317802) vcan0 125#6A1B2F7C98C46056
(1681411567.317805) vcan0 116#DB81B77C5598E17A
(1681411567.317820) vcan0 108#283C3B5F69F4F766
(1681411567.317844) vcan0 122#0903F74168D67E36
(1681411567.317846) vcan0 120#39D47E0F4F772824
(1681411567.317848) vcan0 112#9F66DB35BC46396D
(1681411567.317850) vcan0 110#BAD89B549B8F8F73
(1681411567.317851) vcan0 107#0C5A56139570D27B
(1681411567.317854) vcan0 115#F737FC634ED12E58
(1681411567.317872) vcan0 100#C490354C8699B61B
(1681411567.317890) vcan0 103#1D8F553C205D2415
(1681411567.317889) vcan0 101#DAA2E839D161EA15
(1681411567.317895) vcan0 102#39B39678AFFCD229
(1681411567.317897) vcan0 114#9E75205FC31A1656
(1681411567.317899) vcan0 121#CABF8E1A99486B66
(1681411567.317911) vcan0 118#7BC8B51F5CD55622
(1681411567.317931) vcan0 124#94C5A10137901D78
(1681411567.317939) vcan0 117#5CB9C84F986F4B00
(1681411567.317941) vcan0 109#6923217B9DFC643E
(1681411567.317943) vcan0 111#0498D9187FE3ED3D
(1681411567.317956) vcan0 113#1E13325CCF283569
(1681411567.317965) vcan0 106#62A21711D1642B18
(1681411567.518059) vcan0 107#183798721660EF08
(1681411567.518061) vcan0 108#45B12C346634B84F
(1681411567.518063) vcan0 110#81F0AD20CC5AFF6F
(1681411567.518057) vcan0 102#41D546754F04AE2B
(1681411567.518067) vcan0 116#47A0C33D02CA6441
(1681411567.518088) vcan0 118#C15CCE12570AD568
(1681411567.518089) vcan0 115#2A42EA4D46A2F91D
(1681411567.518091) vcan0 105#7633AA3C75F9F57C
(1681411567.518152) vcan0 114#0999E25289A79C53
(1681411567.518151) vcan0 119#BCC86101AC535F79
(1681411567.518154) vcan0 112#D0BD6D2FB47FCA70
(1681411567.518157) vcan0 120#5BBE7B51A946B164
(1681411567.518156) vcan0 122#7B8FA710AE16BC3F
(1681411567.518158) vcan0 117#7BF0840695C67459
(1681411567.518160) vcan0 100#6E569C1F99C44764
(1681411567.518197) vcan0 113#7F414E0B2D779445
(1681411567.518198) vcan0 111#90A68577539E3A6D
(1681411567.518199) vcan0 109#7F07AE5407554C76
(1681411567.518201) vcan0 103#8B096F34C333DE45
(1681411567.518203) vcan0 101#AD0D303B237AF105
(1681411567.518205) vcan0 104#A9DC150A05D8EF50
(1681411567.518206) vcan0 121#C9F956667473EA12
(1681411567.518237) vcan0 123#1150CB5E96A73069
(1681411567.518244) vcan0 106#967344667885783D
(1681411567.518246) vcan0 124#AE10031FB7BAEB23
(1681411567.518247) vcan0 125#D17D1B6AE1A1895A
(1681411567.718378) vcan0 121#CFA34864A3C11731
(1681411567.718377) vcan0 100#38754F729999446F
(1681411567.718381) vcan0 109#A086346853979D0C
(1681411567.718383) vcan0 108#23503D68535A3802
(1681411567.718386) vcan0 122#4AD9973612053556
(1681411567.718391) vcan0 116#D449AD56C4BB125F
(1681411567.718389) vcan0 107#BE17D5349FDA4D46
(1681411567.718393) vcan0 114#0C023926D120235E
(1681411567.718454) vcan0 117#D72FCD469AA67931
(1681411567.718455) vcan0 104#BDD8A033EFF49609
(1681411567.718457) vcan0 112#534EBC3876C1ED70
(1681411567.718459) vcan0 120#C417535F6901B75C
(1681411567.718460) vcan0 101#058AE3299322DB4E
(1681411567.718462) vcan0 119#CDF8F16F3563E82A
(1681411567.718462) vcan0 113#C1062A13A8720124
(1681411567.718497) vcan0 118#FA75ED49A15F717F
(1681411567.718499) vcan0 125#EB01084762E76622
(1681411567.718502) vcan0 102#D41A483DF08C8F25
(1681411567.718504) vcan0 103#46047734C9802C30
(1681411567.718506) vcan0 105#11C0BD4E0E61C96E
(1681411567.718508) vcan0 123#B34155049EB76078
(1681411567.718509) vcan0 111#EE6BE1652357B815
(1681411567.718536) vcan0 115#2271190653697E3A
(1681411567.718547) vcan0 106#F1A68B47F5DB5070
(1681411567.718549) vcan0 124#449D5F7D74FE9A5E
(1681411567.718550) vcan0 110#C1CB4E24D2385C59
(1681411567.919017) vcan0 112#ED500C133DF3FC3B
(1681411567.919018) vcan0 108#7897A8184F2A4070
(1681411567.919023) vcan0 111#349AB35828115E4B
(1681411567.919022) vcan0 123#886C271FBA78312C
(1681411567.919027) vcan0 104#2ECB787AF788A270
(1681411567.919028) vcan0 117#884E012D90AD1A7B
(1681411567.919032) vcan0 101#851F7F166BE36632
(1681411567.919033) vcan0 120#EB80E300FF94974C
(1681411567.919096) vcan0 109#1D2D8C7BDDF81969
(1681411567.919097) vcan0 113#DCB7A705FA356221
(1681411567.919099) vcan0 119#A057D11F16D9EF1F
(1681411567.919102) vcan0 125#2494D92ADE16E775
(1681411567.919101) vcan0 118#076374059910DA34
(1681411567.919104) vcan0 103#1524770B17A96B55
(1681411567.919105) vcan0 122#BB24375E20393E24
(1681411567.919124) vcan0 102#8F6D1F2336CB2818
(1681411567.919143) vcan0 107#533FF847862FBA28
(1681411567.919142) vcan0 110#3E41A76E1CB6EE3C
(1681411567.919145) vcan0 115#0CC4E264CC77F563
(1681411567.919146) vcan0 100#A9F25070EA63FE3F
(1681411567.919151) vcan0 105#14269D0587FDC851
(1681411567.919149) vcan0 116#D671DE321BCD9C56
(1681411567.919184) vcan0 114#0E2CAC2FC7F7BA5B
(1681411567.919186) vcan0 121#C52571444325414E
(1681411567.919191) vcan0 124#CDDE06486DCCFD24
(1681411567.919193) vcan0 106#A5909309CCBACE3D
(1681411568.119725) vcan0 100#64226F4A71AAF467
(1681411568.119728) vcan0 105#1233623FFA22505E
(1681411568.119733) vcan0 125#4E2D792AA0DE2E2B
(1681411568.119730) vcan0 113#A1E8FC21C566743C
(1681411568.119731) vcan0 119#5B676842AC058D0C
(1681411568.119737) vcan0 108#C2D37F24E06A1326
(1681411568.119738) vcan0 109#777FAB62CA03404E
(1681411568.119740) vcan0 103#4E3AE81FD7E22877
(1681411568.119797) vcan0 118#031EA404A8589A7B
(1681411568.119798) vcan0 115#A197AF0B65BF1260
(1681411568.119799) vcan0 107#402B0E5F9D254A36
(1681411568.119800) vcan0 110#8284CC3E47B58876
(1681411568.119802) vcan0 122#7D2EBB790940031F
(1681411568.119803) vcan0 116#56DED679C6606638
(1681411568.119805) vcan0 102#E21FFA535DFA690A
(1681411568.119804) vcan0 112#D3BA99307E3A171B
(1681411568.119839) vcan0 121#C8500F69BDFA123B
(1681411568.119838) vcan0 104#4BD35155F1C9C63D
(1681411568.119840) vcan0 114#7FBDE740D43E826F
(1681411568.119841) vcan0 111#2CE87D124AD4EC34
(1681411568.119842) vcan0 120#E7C0943F4FA00F61
(1681411568.119844) vcan0 101#FA53DE4A880E893B
(1681411568.119845) vcan0 106#0D3F08787EA48C1A
(1681411568.119878) vcan0 123#207E5D1C4354D966
(1681411568.119880) vcan0 124#26F04D2812FAE401
(1681411568.119881) vcan0 117#27374706534C6134
(1681411568.320453) vcan0 102#5B400567436EB776
(1681411568.320456) vcan0 122#23936E2FFA066821
(1681411568.320458) vcan0 121#3A37CC3AF8E09F70
(1681411568.320459) vcan0 118#242F7809D6E50923
(1681411568.320461) vcan0 112#C76F54639A372D5A
(1681411568.320463) vcan0 116#804D2D00A0ACAE74
(1681411568.320467) vcan0 107#F823FC36BF42E76B
(1681411568.320466) vcan0 110#1C1EBF4464263E15
(1681411568.320522) vcan0 117#CD956F5E13A46705
(1681411568.320524) vcan0 106#D9988F36F04FC53D
(1681411568.320525) vcan0 115#2D66E5787A4CA145
(1681411568.320527) vcan0 104#F3CB2C239C1A3E62
(1681411568.320528) vcan0 101#E7FE04618F4AEC67
(1681411568.320530) vcan0 120#238E9B6E57BF271F
(1681411568.320532) vcan0 111#978222434FDF1C77
(1681411568.320531) vcan0 114#C4B65774C8313C28
(1681411568.320562) vcan0 108#015A5332D0821718
(1681411568.320563) vcan0 109#025AC72B7E15BF18
(1681411568.320566) vcan0 100#B08B702825827B15
(1681411568.320567) vcan0 125#F8BED2233B96AC3E
(1681411568.320569) vcan0 105#FEEDE15F289B6053
(1681411568.320570) vcan0 124#68896141AF5EB35E
(1681411568.320571) vcan0 119#B45016371C6A685E
(1681411568.320572) vcan0 123#893FCB0C01E6832A
(1681411568.320606) vcan0 103#D0DBA6141780200B
(1681411568.320609) vcan0 113#062A484798CEDB2C
(1681411568.520612) vcan0 118#B1117F4AC3DF7852
(1681411568.520676) vcan0 125#E05671340D1C7D1C
(1681411568.520681) vcan0 115#E075CC7A1204DD77
(1681411568.520679) vcan0 108#2BCC60310FCA460B
(1681411568.520684) vcan0 101#7BFE121C04127D2E
(1681411568.520688) vcan0 104#823FE023BABBCF71
(1681411568.520690) vcan0 100#F43C816D316CFE50
(1681411568.520697) vcan0 111#4680E10AA372DA39
(1681411568.520696) vcan0 123#1E09B70D4911DA2B
(1681411568.520729) vcan0 117#E5BA27316B3D5661
(1681411568.520730) vcan0 106#A6853826D0D51511
(1681411568.520732) vcan0 124#1B234C370E99746F
(1681411568.520732) vcan0 105#B5A7A14E22F18075
(1681411568.520745) vcan0 119#193D584D37513C71
(1681411568.520744) vcan0 114#A912B45E85BF3F17
(1681411568.520769) vcan0 109#454105660DAE0F01
(1681411568.520768) vcan0 102#4A34484FD264AE25
(1681411568.520770) vcan0 120#CFFA2F7573C35922
(1681411568.520771) vcan0 122#7C66D96477042C72
(1681411568.520783) vcan0 113#B3C6E0483BA0354E
(1681411568.520783) vcan0 107#8D18114B6014DD16
(1681411568.520844) vcan0 112#9081982C1C59E35C
(1681411568.520843) vcan0 103#2A306A403FA1B82D
(1681411568.520853) vcan0 121#178A567E87218D43
(1681411568.520874) vcan0 116#74076C7C73F5C005
(1681411568.520898) vcan0 110#9D0803343CB9D12C
(1681411568.721344) vcan0 100#1F59005ECCADC80B
(1681411568.721345) vcan0 125#5BDFDC3D6EE52874
(1681411568.721348) vcan0 114#7E4B96164B3DBC3C
(1681411568.721350) vcan0 119#A8AC363E76497212
(1681411568.721353) vcan0 106#2DA58C507867AE29
(1681411568.721356) vcan0 124#77242A04A4352D7E
(1681411568.721358) vcan0 105#215AD32CAF866A46
(1681411568.721360) vcan0 117#CFC526613162AF37
(1681411568.721413) vcan0 123#A7C5502E6B97C137
(1681411568.721414) vcan0 111#1FB1111B7F2E1421
(1681411568.721416) vcan0 118#6146540636F02D08
(1681411568.721418) vcan0 108#D474EF2A5297B623
(1681411568.721418) vcan0 115#0693614C25D35F07
(1681411568.721420) vcan0 120#4925671C54EF8B2A
(1681411568.721421) vcan0 122#14F456726AF6530E
(1681411568.721452) vcan0 113#AB07D377B90FAF55
(1681411568.721451) vcan0 121#D018FD710276EB3E
(1681411568.721457) vcan0 102#6954D026A8046717
(1681411568.721458) vcan0 109#E67D806D585C664D
(1681411568.721460) vcan0 101#E9993C13CF14FB08
(1681411568.721461) vcan0 104#BA9B6A23D508944D
(1681411568.721488) vcan0 107#BB3A4E54B0AB0700
(1681411568.721493) vcan0 116#049A1943CB3B5E05
(1681411568.721495) vcan0 103#A5B5C8484535FB05
(1681411568.721506) vcan0 112#4CDA755B53596F33
(1681411568.721526) vcan0 110#6A8F4C4085790F2A
(1681411568.921603) vcan0 125#92C52A581E6CBA01
(1681411568.921604) vcan0 100#B50C0F266D88B86D
(1681411568.921615) vcan0 101#241C54244FCF481B
(1681411568.921619) vcan0 108#5C181F4D67A87A79
(1681411568.921618) vcan0 115#B26E4C009D345D38
(1681411568.921621) vcan0 120#ED1A2C4E4B6F5D64
(1681411568.921624) vcan0 123#B87B504860A60C77
(1681411568.921625) vcan0 121#64792A4B9CCA7065
(1681411568.921666) vcan0 118#36D0C8515B830510
(1681411568.921671) vcan0 122#77F0552BAE6E2F03
(1681411568.921672) vcan0 102#9229925D22140C30
(1681411568.921674) vcan0 104#490776356A56B330
(1681411568.921675) vcan0 117#6A806C64E2C7E136
(1681411568.921677) vcan0 111#C5BD2E3DD2DA2E58
(1681411568.921676) vcan0 114#85389260BCFA061D
(1681411568.921705) vcan0 112#59705E7F20FE8234
(1681411568.921712) vcan0 124#6C11F146564FA542
(1681411568.921713) vcan0 105#FF50A741F8102348
(1681411568.921715) vcan0 109#684664003019A055
(1681411568.921714) vcan0 106#A840221CF119B841
(1681411568.921717) vcan0 107#3B36A0782989BF18
(1681411568.921716) vcan0 113#84CBF6687565913D
(1681411568.921746) vcan0 103#09F79B5E3D7ABE49
(1681411568.921750) vcan0 116#9FC9694367AE950D
(1681411568.921754) vcan0 119#611A992EC81E7C7D
(1681411568.921755) vcan0 110#91C6612C29ADE04C
(1681411569.122273) vcan0 100#D5D2520F1C4F8C00
(1681411569.122275) vcan0 125#319A7A738E5EB341
(1681411569.122278) vcan0 104#AC5B5111FA0F7D6D
(1681411569.122279) vcan0 122#141FCF519D3DB019
(1681411569.122282) vcan0 111#720C6D35D62FC252
(1681411569.122283) vcan0 123#ED58440045C41043
(1681411569.122287) vcan0 115#BCBEDB445D53D32F
(1681411569.122288) vcan0 102#12F2F3226CB2625F
(1681411569.122343) vcan0 120#73DE932CB8AF7530
(1681411569.122344) vcan0 105#7619672680B7EF09
(1681411569.122347) vcan0 121#31C4855E65886B01
(1681411569.122345) vcan0 114#0045F8320AC39A7A
(1681411569.122348) vcan0 117#D9C9F87BDED37403
(1681411569.122349) vcan0 108#B0D3905FA59AD37F
(1681411569.122373) vcan0 112#79829435AA5EFE6F
(1681411569.122383) vcan0 101#F223A134CDDE391B
(1681411569.122385) vcan0 124#944E963F2A31781D
(1681411569.122387) vcan0 119#1B7F277B6C04C94C
(1681411569.122386) vcan0 113#43735A3DB8038160
(1681411569.122389) vcan0 106#2D9EAB749C4F2556
(1681411569.122388) vcan0 109#E2993E574063AB2C
(1681411569.122417) vcan0 118#48ED9001FE1FFE18
(1681411569.122420) vcan0 103#B46CF77C22589B4D
(1681411569.122424) vcan0 107#A1158823F1617966
(1681411569.122425) vcan0 110#AFF38D28E5FB1D39
(1681411569.122427) vcan0 116#44F8F96C55DC5678
(1681411569.322956) vcan0 112#8561046987FB3077
(1681411569.322957) vcan0 125#70E37867FD221945
(1681411569.322961) vcan0 106#37D304078B572E10
(1681411569.322960) vcan0 117#5A38953885F3BC62
(1681411569.322966) vcan0 114#C5D90153BE3B664B
(1681411569.322964) vcan0 107#924E6C64BA4E5E77
(1681411569.322969) vcan0 124#0EF3165CA0690A53
(1681411569.322970) vcan0 101#BB7DC65F508F3936
(1681411569.323020) vcan0 120#4BC60555BC10C477
(1681411569.323025) vcan0 108#BDB56E6E072FC338
(1681411569.323024) vcan0 109#6846995670191772
(1681411569.323026) vcan0 113#9F77A90756791F69
(1681411569.323027) vcan0 119#294F294DE96E0561
(1681411569.323030) vcan0 103#996D5C6A37583556
(1681411569.323029) vcan0 122#6076EB34C1C50156
(1681411569.323057) vcan0 110#1E3F2000CB443B35
(1681411569.323064) vcan0 102#CCC8A66E4FFC1465
(1681411569.323064) vcan0 116#5A36BC48FE46C230
(1681411569.323066) vcan0 121#EDE32D4803093E4C
(1681411569.323067) vcan0 123#90832F1319F2ED55
(1681411569.323069) vcan0 104#D1CAA97520B2173F
(1681411569.323098) vcan0 105#4C5EBD301B2F1213
(1681411569.323100) vcan0 115#10471C52DEE5803E
(1681411569.323103) vcan0 111#3553EA3D7C303B44
(1681411569.323109) vcan0 118#F734B96E2A74BE02
(1681411569.323124) vcan0 100#E42D61423C8EB258
(1681411569.523642) vcan0 104#75A8DB0286247002
(1681411569.523645) vcan0 101#BDEE187FFB925C50
(1681411569.523644) vcan0 123#841E1F1AF98A636B
(1681411569.523647) vcan0 121#075F185CAD840331
(1681411569.523651) vcan0 116#C93E942C1701D94F
(1681411569.523651) vcan0 102#FBB9E82E788C5578
(1681411569.523655) vcan0 103#B5790C691A0EFC23
(1681411569.523654) vcan0 110#968DCF6FE2845154
(1681411569.523716) vcan0 124#598B0F41E2667D28
(1681411569.523715) vcan0 118#965AD26F0D4FB616
(1681411569.523719) vcan0 114#132C4D5D83B52521
(1681411569.523718) vcan0 111#5EEDCC1B3EEE9C79
(1681411569.523720) vcan0 106#04A31B39B5EAC33E
(1681411569.523721) vcan0 115#9909F26A34EC3552
(1681411569.523723) vcan0 112#66818F1E154A3A74
(1681411569.523754) vcan0 100#0FB8694DD3C5831F
(1681411569.523755) vcan0 107#99E4440760512129
(1681411569.523758) vcan0 117#13E9A166AECBCD5E
(1681411569.523763) vcan0 105#25FB232E6EB66924
(1681411569.523804) vcan0 108#3E42C9095614F65C
(1681411569.523820) vcan0 119#B5677C4D99D84E43
(1681411569.523821) vcan0 109#5AA0EB0988296554
(1681411569.523840) vcan0 120#57E7A61F505DFB41
(1681411569.523856) vcan0 122#B529F0008FB20333
(1681411569.523866) vcan0 113#9594C839B61EE70D
(1681411569.523880) vcan0 125#0FCC0E4DD05B3623
(1681411569.724446) vcan0 100#38B4C32DDC953C7B
(1681411569.724447) vcan0 116#9481E5229E42E32F
(1681411569.724447) vcan0 114#B50F560809EE0443
(1681411569.724444) vcan0 111#8737B8609757BF3B
(1681411569.724445) vcan0 122#D910907194A29F2B
(1681411569.724449) vcan0 115#272C53602449E933
(1681411569.724448) vcan0 105#2F08B0168B9EF42D
(1681411569.724449) vcan0 120#42C2A61C78A7AB0D
(1681411569.724471) vcan0 108#2F09023054C50642
(1681411569.724471) vcan0 119#559CCA191C7AA263
(1681411569.724471) vcan0 109#26370A67C24DE063
(1681411569.724472) vcan0 123#9EF2714BB8666844
(1681411569.724472) vcan0 107#B597AC0D2449B75A
(1681411569.724473) vcan0 112#8A17691B749FA87A
(1681411569.724473) vcan0 103#BA94F605FB260914
(1681411569.724485) vcan0 101#2708566B75B43B55
(1681411569.724487) vcan0 121#DA0B877749524D68
(1681411569.724487) vcan0 117#D1D154252C14A757
(1681411569.724487) vcan0 102#0B93FB451850CC54
(1681411569.724488) vcan0 110#39F808361EA6903F
(1681411569.724488) vcan0 113#92FF005EA8DEB638
(1681411569.724501) vcan0 124#4095021A0AFE105F
(1681411569.724502) vcan0 118#A988E85EBF462E21
(1681411569.724502) vcan0 125#5F35CA59839A4825
(1681411569.724506) vcan0 106#574ECA7D62143370
(1681411569.724508) vcan0 104#2E2EF2429045073F
(1681411569.925157) vcan0 120#73FAFB6580937404
(1681411569.925159) vcan0 102#2F321D18CB31AE15
(1681411569.925162) vcan0 110#D7B1561C7A3F1E2C
(1681411569.925164) vcan0 115#82D0A30BA177FF37
(1681411569.925168) vcan0 117#D9B3A719757AC055
(1681411569.925167) vcan0 111#A00C5E094F812B15
(1681411569.925171) vcan0 112#EE1F6648F4631679
(1681411569.925204) vcan0 124#BE64E9220C695640
(1681411569.925225) vcan0 121#7A792345326CBD6F
(1681411569.925227) vcan0 116#77D4B40251A55A28
(1681411569.925229) vcan0 122#888D7D5E8C5C4E65
(1681411569.925231) vcan0 113#B157D83B71596814
(1681411569.925230) vcan0 125#C74FDB7264D7341C
(1681411569.925242) vcan0 114#D143C03E0F120843
(1681411569.925261) vcan0 106#CE10E11FAEDB6E37
(1681411569.925267) vcan0 108#1613AC189A2F921A
(1681411569.925269) vcan0 105#984629700EB69C31
(1681411569.925269) vcan0 118#8C4AC849D2820C24
(1681411569.925322) vcan0 107#7A944E11BF26C83C
(1681411569.925327) vcan0 101#C6AC1343A3DB3469
(1681411569.925354) vcan0 103#E5743B7068C9654A
(1681411569.925355) vcan0 104#4EE22A7C512D0A37
(1681411569.925380) vcan0 109#5E07AA1E3181187D
(1681411569.925406) vcan0 119#FD6F7D7E9724AB20
(1681411569.925417) vcan0 123#C7D5FB05DC45380C
(1681411569.925447) vcan0 100#E50FC06C980DDB7A
(1681411570.125386) vcan0 102#618E00583C427B29
(1681411570.125392) vcan0 114#1F4D30013B156019
(1681411570.125400) vcan0 105#D54E641F6D86911F
(1681411570.125398) vcan0 113#4981645ABC3B4C70
(1681411570.125412) vcan0 121#1BE6924FCE71387C
(1681411570.125418) vcan0 117#847987024DB08A77
(1681411570.125436) vcan0 112#0B1AE635B1A12329
(1681411570.125435) vcan0 108#DA7515323F28EB43
(1681411570.125456) vcan0 101#8C84F45543A4C547
(1681411570.125456) vcan0 124#C2DB5F04A9DE7D38
(1681411570.125459) vcan0 118#167EEC21186F4838
(1681411570.125458) vcan0 125#11030E414020935A
(1681411570.125482) vcan0 107#0D04A522FEC14E7A
(1681411570.125486) vcan0 116#CB474C1152C1FB76
(1681411570.125493) vcan0 106#9823C170519B4456
(1681411570.125495) vcan0 110#5D894401035BC530
(1681411570.125502) vcan0 120#74E2C105999C9A57
(1681411570.125520) vcan0 111#E339DD3B77911451
(1681411570.125527) vcan0 104#9D02E4471BB7E90A
(1681411570.125537) vcan0 122#243B0D6610464E05
(1681411570.125547) vcan0 103#0A24A35BEF0C4F1F
(1681411570.125546) vcan0 109#89A4441B08A4FC23
(1681411570.125552) vcan0 119#FE0E7F29FD6DD411
(1681411570.125555) vcan0 123#18EC4D6393AC9278
(1681411570.125580) vcan0 100#EB8916353512851A
(1681411570.125583) vcan0 115#D0DBCA33020B0E6A
(1681411570.326117) vcan0 108#6CE71B2E02B25011
(1681411570.326121) vcan0 109#2DADE024F3C76516
(1681411570.326119) vcan0 103#7988142127B3F817
(1681411570.326124) vcan0 119#74F6DF43ACD3B357
(1681411570.326128) vcan0 104#EC81504A919E0F2E
(1681411570.326127) vcan0 114#2326F40BBDC25060
(1681411570.326129) vcan0 107#3C8F0045195EFB35
(1681411570.326131) vcan0 112#63CE854BAB80C16B
(1681411570.326190) vcan0 105#5A223A7F250DEE78
(1681411570.326189) vcan0 113#9720224168949636
(1681411570.326192) vcan0 106#7806CB6AFAC5D801
(1681411570.326194) vcan0 102#8966ED349A419750
(1681411570.326193) vcan0 124#CB64095156A10106
(1681411570.326195) vcan0 100#5A09337FAF1A4C01
(1681411570.326197) vcan0 122#5AAEF2192E3E0428
(1681411570.326228) vcan0 115#A185AE5BC813C717
(1681411570.326230) vcan0 110#63718F1C1762E055
(1681411570.326231) vcan0 111#639D2D30E7D1B654
(1681411570.326233) vcan0 121#482C113FE5A5216A
(1681411570.326234) vcan0 117#84601A37E0325052
(1681411570.326235) vcan0 125#31BFFE027B1E3D3D
(1681411570.326269) vcan0 116#4764665BA6C9030E
(1681411570.326273) vcan0 123#C487C8656C205D4E
(1681411570.326302) vcan0 118#35120D269146A241
(1681411570.326303) vcan0 101#B036AE556727DD0F
(1681411570.326329) vcan0 120#854DBA59AEB64015
(1681411570.526853) vcan0 125#D8E4F330033D1A6D
(1681411570.526855) vcan0 110#9EEA5424E4613D3D
(1681411570.526859) vcan0 112#6DE85C16338CF37A
(1681411570.526863) vcan0 103#106A733404928355
(1681411570.526862) vcan0 121#67BAA36211266825
(1681411570.526865) vcan0 111#F674020FF443B327
(1681411570.526867) vcan0 117#E51FD677FF509F3D
(1681411570.526870) vcan0 105#ED88F301D055E43B
(1681411570.526923) vcan0 115#50DC3C42CBC79829
(1681411570.526925) vcan0 109#A6A06162ACB48E79
(1681411570.526927) vcan0 119#58DDED2A31BF4145
(1681411570.526929) vcan0 123#9B8BA94ED5D79344
(1681411570.526928) vcan0 124#E06E9B3079750C70
(1681411570.526930) vcan0 114#FF2F766F2CBFD65E
(1681411570.526931) vcan0 104#D1F72B3B965E6654
(1681411570.526960) vcan0 118#75449F5AF76EDB38
(1681411570.526961) vcan0 101#1506B05D5E44DE10
(1681411570.526969) vcan0 108#A81CE32AB2984862
(1681411570.526968) vcan0 122#781CCD3BD63D9A2A
(1681411570.527006) vcan0 116#A859DD718E042A19
(1681411570.527012) vcan0 120#E813C37BE00B362B
(1681411570.527011) vcan0 113#8B6481591662704C
(1681411570.527025) vcan0 107#9332217654C69837
(1681411570.527043) vcan0 106#2200706E0E7A0F51
(1681411570.527047) vcan0 100#BCAB3B36C95FCF1E
(1681411570.527072) vcan0 102#EB3E4E53CA3B342A
(1681411570.726976) vcan0 112#5F008C5CC036194F
(1681411570.727014) vcan0 105#9B06E475FE48B150
(1681411570.727031) vcan0 109#FA1CB20C4627964A
(1681411570.727032) vcan0 117#76F9C42BBC4FA33E
(1681411570.727026) vcan0 115#0EB6C035734D5648
(1681411570.727034) vcan0 101#8AA1CE151A909307
(1681411570.727036) vcan0 121#59190C7D365EEC46
(1681411570.727036) vcan0 111#3A70F141E4E0E374
(1681411570.727044) vcan0 118#E950772A6FBA8C24
(1681411570.727050) vcan0 122#DC54C067C3F56472
(1681411570.727057) vcan0 124#0E5CED29240CFB2D
(1681411570.727059) vcan0 110#E3BCDF455FB6A348
(1681411570.727059) vcan0 123#02C88D374ECDFE52
(1681411570.727058) vcan0 108#68E60861CC6C2013
(1681411570.727067) vcan0 104#9776FF7E8FD0CC6E
(1681411570.727078) vcan0 103#EAE6D65D566EEA68
(1681411570.727081) vcan0 114#476AED330B32AF15
(1681411570.727083) vcan0 119#5827135125D6DF1A
(1681411570.727086) vcan0 116#A893684F7CA38A48
(1681411570.727087) vcan0 113#950B2B7C4C6BAB6C
(1681411570.727096) vcan0 100#49DF9365F4208B28
(1681411570.727096) vcan0 125#5DC0C617C3E6FB77
(1681411570.727103) vcan0 120#57FDF179AC2B165B
(1681411570.727107) vcan0 107#30BEEA3E524AF62A
(1681411570.727116) vcan0 106#734B513F14A7FB35
(1681411570.727122) vcan0 102#E945457CBF599610
(1681411570.927629) vcan0 111#179B6B3D6E0AA51A
(1681411570.927630) vcan0 113#BED4717071C3D201
(1681411570.927632) vcan0 108#05F38064E07DB179
(1681411570.927626) vcan0 122#E842CF009779F745
(1681411570.927636) vcan0 107#F4A0E67D83FDE206
(1681411570.927637) vcan0 105#DEB6AD2AAF2C817B
(1681411570.927641) vcan0 101#F166B95F0FC14D2C
(1681411570.927640) vcan0 117#99F7186FFE47C658
(1681411570.927692) vcan0 100#62F9130EF2D1E455
(1681411570.927696) vcan0 112#A94DE16B4C51986F
(1681411570.927698) vcan0 118#98CE4C38F0B3EB2F
(1681411570.927698) vcan0 104#8553FD5DC5417879
(1681411570.927700) vcan0 119#66222A70F87EE470
(1681411570.927701) vcan0 109#004C2C06174A3E08
(1681411570.927721) vcan0 115#1E3117641A7AA31A
(1681411570.927731) vcan0 114#FDDFF93C55969963
(1681411570.927734) vcan0 120#490DED07427ED57A
(1681411570.927735) vcan0 102#BAC8C34F79B3641F
(1681411570.927740) vcan0 103#CE12B005000B4E69
(1681411570.927739) vcan0 124#ED73A74EDB3AF471
(1681411570.927758) vcan0 125#6524810F8154A042
(1681411570.927784) vcan0 123#748FF43C8B34B556
(1681411570.927789) vcan0 110#B69A991621FE8634
(1681411570.927806) vcan0 121#B5E77F561F3F7D41
(1681411570.927820) vcan0 116#53C03C787F054702
(1681411570.927844) vcan0 106#0356604118DCE448
(1681411571.127820) vcan0 112#FD29160B7C087B1C
(1681411571.127821) vcan0 111#0DF241404483E94F
(1681411571.127817) vcan0 108#1B976003C8C60009
(1681411571.127872) vcan0 118#08CB66599BECF03C
(1681411571.127870) vcan0 122#E32EA31666718A7A
(1681411571.127876) vcan0 100#DE848968C61B8358
(1681411571.127881) vcan0 114#D2296A717D9DE17D
(1681411571.127888) vcan0 120#ABC0AD2730CE8147
(1681411571.127918) vcan0 115#3FC54B2CBFC8C66F
(1681411571.127917) vcan0 104#86596F5FD0264F33
(1681411571.127922) vcan0 109#2420B03377CBD768
(1681411571.127923) vcan0 124#91D8F8521364F576
(1681411571.127952) vcan0 110#7C6C9205391F6655
(1681411571.127956) vcan0 125#A1FDE26DB351FA39
(1681411571.127957) vcan0 105#85467A22F0E90F6A
(1681411571.127954) vcan0 121#7A832D157D388F3F
(1681411571.127960) vcan0 119#3BAFCF3AC1899232
(1681411571.127959) vcan0 123#0946307F940D5259
(1681411571.127993) vcan0 102#F524BF289DE8BD23
(1681411571.127994) vcan0 107#D879B05334CCF45C
(1681411571.127997) vcan0 117#4CFDBD39C02E6075
(1681411571.127998) vcan0 101#8573FA39EBBA972A
(1681411571.127996) vcan0 106#E061CA7310956839
(1681411571.128003) vcan0 116#9770271FA99E1372
(1681411571.128033) vcan0 103#6D17563E1C4D9825
(1681411571.128037) vcan0 113#47A10D0E5FBD6E12
(1681411571.328542) vcan0 125#2133CF6D9ABCB511
(1681411571.328541) vcan0 122#A1B9FA6406C21146
(1681411571.328546) vcan0 124#ED34D973F9615A14
(1681411571.328548) vcan0 114#29D51B5396E0C165
(1681411571.328553) vcan0 100#637CD93D8E10FA10
(1681411571.328551) vcan0 120#911EE55BCF4E4916
(1681411571.328554) vcan0 106#97807163B9FA592A
(1681411571.328556) vcan0 108#C0E8C41F1DF1B335
(1681411571.328606) vcan0 105#A94FD15983345C02
(1681411571.328610) vcan0 119#A484717DEFFFE571
(1681411571.328612) vcan0 123#CE888E3D9285FB0B
(1681411571.328613) vcan0 110#68B30F2B988A514A
(1681411571.328614) vcan0 109#E14D7E56267A775F
(1681411571.328615) vcan0 113#362A473E4DCB5555
(1681411571.328616) vcan0 121#DC39907CB4BAF94F
(1681411571.328643) vcan0 102#D6ADCE295065C40F
(1681411571.328650) vcan0 117#5194270D19932D18
(1681411571.328651) vcan0 101#97CFD6676D72FF1A
(1681411571.328653) vcan0 115#7F39B67A6C2B3125
(1681411571.328654) vcan0 116#4566AD3A17BE541F
(1681411571.328655) vcan0 111#B9DE914FA4746403
(1681411571.328656) vcan0 104#B70B3F3779259C02
(1681411571.328688) vcan0 103#D7ED76603DF3FC52
(1681411571.328710) vcan0 112#CA8BAF0AC5996A6E
(1681411571.328718) vcan0 118#980C862B2CFADE62
(1681411571.328756) vcan0 107#20232D3DD09DAC0A
(1681411571.529274) vcan0 120#888DA96661191551
(1681411571.529277) vcan0 100#EB9DFE6D57B95A2B
(1681411571.529281) vcan0 108#98491821ECB42551
(1681411571.529279) vcan0 115#3A1568355FAF8275
(1681411571.529283) vcan0 111#93620647FF5E735A
(1681411571.529285) vcan0 101#7B05841213CEE903
(1681411571.529287) vcan0 102#E056751A20E21679
(1681411571.529289) vcan0 110#9D45A46A05BC125F
(1681411571.529339) vcan0 106#01E52D773D06AA09
(1681411571.529343) vcan0 116#494BC266BA6D1937
(1681411571.529344) vcan0 114#45CF1D26D2E7CF31
(1681411571.529345) vcan0 117#D4D2C77A374F4F3E
(1681411571.529347) vcan0 124#C3C2A8550858252B
(1681411571.529349) vcan0 105#1985703D5EF77228
(1681411571.529350) vcan0 122#6078F21B1D20D449
(1681411571.529382) vcan0 103#34CDB830011EE120
(1681411571.529383) vcan0 112#1640A8765B0D4837
(1681411571.529388) vcan0 118#72D2FA5F4A1E0576
(1681411571.529387) vcan0 121#75192F30F3C3E67A
(1681411571.529405) vcan0 104#6D418D15394B1F5B
(1681411571.529423) vcan0 107#F30EDC48AD3B3E08
(1681411571.529424) vcan0 125#EFE7A678028A4022
(1681411571.529425) vcan0 113#F88B4A3FEAF02707
(1681411571.529458) vcan0 119#DDF3FA10BEC1C94A
(1681411571.529458) vcan0 109#F6E09601278F833C
(1681411571.529479) vcan0 123#95F3D503EC91454B
(1681411571.729447) vcan0 100#BF7CF8610AF7FE4B
(1681411571.729445) vcan0 101#71847C49649FC025
(1681411571.729450) vcan0 102#22CA723549AB4541
(1681411571.729455) vcan0 111#47E73E3DB3131862
(1681411571.729443) vcan0 110#D443237707D5F02A
(1681411571.729471) vcan0 114#1BA0017DC41AB43C
(1681411571.729496) vcan0 124#08FBCE033AE7D259
(1681411571.729498) vcan0 106#8AD06F3B2E8ABA47
(1681411571.729509) vcan0 121#3BDC861345322C22
(1681411571.729521) vcan0 118#F0D95735D3184F66
(1681411571.729543) vcan0 120#4212A338D1B21003
(1681411571.729542) vcan0 104#34E16B7427DDF738
(1681411571.729555) vcan0 125#A7D8322E4AC78336
(1681411571.729560) vcan0 103#7C94B500D9828179
(1681411571.729559) vcan0 116#8AB315254EE5DB29
(1681411571.729562) vcan0 107#31B28921AE492A1D
(1681411571.729575) vcan0 122#7EC63D38746C490E
(1681411571.729596) vcan0 105#A525DD773ADF436A
(1681411571.729604) vcan0 123#DB96D5373CB92632
(1681411571.729620) vcan0 117#85D08379A398EE5B
(1681411571.729625) vcan0 109#33288760DC5E176F
(1681411571.729628) vcan0 113#896B8B23A3931D37
(1681411571.729649) vcan0 108#2CBBFA406CBE074C
(1681411571.729654) vcan0 115#7F2F0E1D40A8C901
(1681411571.729681) vcan0 119#2751226385A0314F
(1681411571.729682) vcan0 112#E1F24D4B621A1E52
(1681411571.929614) vcan0 111#7E8D877B0DA56D7A
(1681411571.929615) vcan0 114#1E258C6EA0D8935D
(1681411571.929676) vcan0 118#800E337E26AA2007
(1681411571.929675) vcan0 121#F539D2399F55B15E
(1681411571.929688) vcan0 120#B508A17B2F2DCF06
(1681411571.929694) vcan0 104#0E54B3287DE8E129
(1681411571.929692) vcan0 116#85A9773C297D7F68
(1681411571.929710) vcan0 124#AC8D5229740CC04A
(1681411571.929727) vcan0 122#87162858F5B69363
(1681411571.929735) vcan0 107#5EE745086CE8291A
(1681411571.929741) vcan0 100#2367233774890708
(1681411571.929739) vcan0 113#A300D75C0D37820C
(1681411571.929738) vcan0 125#706F6916399E5D06
(1681411571.929752) vcan0 103#4753DC26868B515F
(1681411571.929768) vcan0 117#68B1FE75EF50F05D
(1681411571.929769) vcan0 106#B56D583332119257
(1681411571.929774) vcan0 123#5729070393122600
(1681411571.929787) vcan0 102#C8E67D10B4F30413
(1681411571.929789) vcan0 105#0D7EDD6EA5768439
(1681411571.929791) vcan0 110#8A352209650A8523
(1681411571.929807) vcan0 108#3E4CDC7488D3190E
(1681411571.929808) vcan0 101#E2E2E40C95A0D06D
(1681411571.929810) vcan0 115#8482E27C319E5A1D
(1681411571.929828) vcan0 119#340B3C5D886BBB11
(1681411571.929827) vcan0 109#7FEBE9099C6EEB60
(1681411571.929851) vcan0 112#AE66B76A3A63AC4A
(1681411572.129885) vcan0 114#8015BB591E6A8421
(1681411572.129884) vcan0 111#85EE463AF099F430
(1681411572.129913) vcan0 123#9D5F332945824B03
(1681411572.129919) vcan0 124#9036781C40DCE868
(1681411572.129920) vcan0 106#1FA47209E20B0428
(1681411572.129912) vcan0 117#8560D012417BF771
(1681411572.129927) vcan0 125#68333E38A209E409
(1681411572.129925) vcan0 113#18F9AE74E673311A
(1681411572.129950) vcan0 101#B36E0941D5068641
(1681411572.129951) vcan0 108#D3668245EF1F6D54
(1681411572.129968) vcan0 107#D7D2E935FFFCCD2B
(1681411572.129970) vcan0 105#33F0663284974415
(1681411572.129971) vcan0 100#787FB739F8397646
(1681411572.129973) vcan0 119#4DBFAD4C4F8A6358
(1681411572.129974) vcan0 118#2F9C5476C8FBC37F
(1681411572.130008) vcan0 112#8218A10627E94B20
(1681411572.130009) vcan0 103#17FD3F43FBBFD323
(1681411572.130011) vcan0 115#DDDC263A4141BE41
(1681411572.130012) vcan0 122#22DB78119B35F729
(1681411572.130013) vcan0 120#1C226E6728E73428
(1681411572.130027) vcan0 102#6CBF5171DAD87133
(1681411572.130047) vcan0 116#B5937137C9A17129
(1681411572.130056) vcan0 110#3082D1773929B031
(1681411572.130069) vcan0 109#0C78B74461852861
(1681411572.130079) vcan0 104#9133AB69BAAF043A
(1681411572.130081) vcan0 121#E1FC9C0726FE5718
(1681411572.330159) vcan0 106#CE60B72D56777710
(1681411572.330166) vcan0 110#4B06A35C4EC1F177
(1681411572.330162) vcan0 111#E3D42F4DBA413178
(1681411572.330165) vcan0 120#E8DC443767E8733C
(1681411572.330171) vcan0 113#C53A036DB770587C
(1681411572.330170) vcan0 117#CE246561DF98654B
(1681411572.330173) vcan0 124#9E3D38689F298F78
(1681411572.330175) vcan0 108#2D6EED0D911CF133
(1681411572.330225) vcan0 121#05DE1C60CEE0CA4F
(1681411572.330228) vcan0 116#7E59D6600FCA2D00
(1681411572.330227) vcan0 122#92F4437D83516446
(1681411572.330229) vcan0 104#77F85E1762FE545F
(1681411572.330231) vcan0 107#5D4AA3006A21561A
(1681411572.330231) vcan0 123#D8D636432DE3623C
(1681411572.330245) vcan0 114#AA9B2E5846EFBC2C
(1681411572.330261) vcan0 102#21A667723888F85F
(1681411572.330266) vcan0 125#C7FC1048D916B71F
(1681411572.330267) vcan0 109#DCD1960D74BE501B
(1681411572.330270) vcan0 103#A8E3EC2CB06A9C2D
(1681411572.330273) vcan0 119#F46F845E760ED719
(1681411572.330272) vcan0 112#E4C1AA3A077AA56F
(1681411572.330314) vcan0 100#90D893085CAD187C
(1681411572.330317) vcan0 105#252E74437F4E2463
(1681411572.330328) vcan0 115#8EF12D4DEE23430C
(1681411572.330342) vcan0 118#24CA1E2026D10D65
(1681411572.330352) vcan0 101#627F0A096EECCF20
(1681411572.530433) vcan0 125#9F2CFD4ED6C81F15
(1681411572.530434) vcan0 113#3CED50035ACFCB26
(1681411572.530438) vcan0 105#9FC656284B299871
(1681411572.530441) vcan0 124#E045F33BF7C84729
(1681411572.530445) vcan0 117#C66EB454E10D0748
(1681411572.530443) vcan0 108#F64E300D6BB0B617
(1681411572.530447) vcan0 122#5CFBF87F481E347E
(1681411572.530449) vcan0 111#6CCA2F7542C2FC68
(1681411572.530499) vcan0 109#D29E3F5336728217
(1681411572.530500) vcan0 102#2AD586181C605021
(1681411572.530501) vcan0 100#34C8281FA090FD55
(1681411572.530503) vcan0 119#38F96839A9D7002C
(1681411572.530504) vcan0 118#F26F8202BA24F10F
(1681411572.530507) vcan0 107#B94B2C23F72EE807
(1681411572.530506) vcan0 106#6D633238D203D366
(1681411572.530537) vcan0 115#1F273F0028FB1F38
(1681411572.530538) vcan0 110#046EEB66E193724C
(1681411572.530539) vcan0 101#2596BF771F6E2308
(1681411572.530541) vcan0 112#AFE47C174A433A59
(1681411572.530545) vcan0 104#DA611C79ECA03A1A
(1681411572.530546) vcan0 103#3218097A5E5DF915
(1681411572.530582) vcan0 121#2A0796640C3D353C
(1681411572.530584) vcan0 123#5E7439595CF5555D
(1681411572.530603) vcan0 120#E4F7F81F3FC4EB56
(1681411572.530605) vcan0 114#DCA5EA6CBDC77B35
(1681411572.530615) vcan0 116#C8E8335A48986A0D
(1681411572.731168) vcan0 124#81900C2120DBF555
(1681411572.731170) vcan0 109#FCE7B56FF8D5493A
(1681411572.731174) vcan0 113#6D8F3F0ACEEC5161
(1681411572.731172) vcan0 110#3046434C3E66F41C
(1681411572.731178) vcan0 111#F82FCE71F301E855
(1681411572.731177) vcan0 112#1CC4DF6339FCE532
(1681411572.731180) vcan0 123#266EC627FC66AB24
(1681411572.731182) vcan0 104#E822C56109900E3C
(1681411572.731233) vcan0 115#2210795E46539260
(1681411572.731236) vcan0 105#ED048E07CECE063F
(1681411572.731235) vcan0 101#6A7F2C714C9E1563
(1681411572.731238) vcan0 103#CA789851ECACFF7F
(1681411572.731239) vcan0 121#7B65CE0004131D5C
(1681411572.731240) vcan0 116#26CB06505C6A197D
(1681411572.731241) vcan0 117#8D64332A9740097A
(1681411572.731271) vcan0 120#B8456F7E27BA9F3C
(1681411572.731277) vcan0 108#E730E7102558323D
(1681411572.731280) vcan0 114#C9A4E24D91B54075
(1681411572.731279) vcan0 122#12046879350C8971
(1681411572.731329) vcan0 102#B0144E583568825E
(1681411572.731336) vcan0 106#0C623B4FC5B1FC35
(1681411572.731342) vcan0 100#2F739C1B6C7CEC4C
(1681411572.731369) vcan0 125#A972ED42FE61C728
(1681411572.731370) vcan0 107#CA7277436EE3D830
(1681411572.731395) vcan0 119#0FE7255D8D953353
(1681411572.731399) vcan0 118#3320C47B9BF86A61
(1681411572.931439) vcan0 108#BF75BD59FD439329
(1681411572.931438) vcan0 112#BEE2E2530BE4452C
(1681411572.931443) vcan0 122#DCC0D3299A91E557
(1681411572.931446) vcan0 110#FF39030C08F89968
(1681411572.931449) vcan0 102#35B01C76DF466B70
(1681411572.931457) vcan0 114#C7B580789BE8A20C
(1681411572.931455) vcan0 109#F9BF627B5AEF5F0E
(1681411572.931459) vcan0 115#4C44096CA4E01C6A
(1681411572.931506) vcan0 100#7C263A5115835C08
(1681411572.931508) vcan0 125#5963683A70C2C835
(1681411572.931511) vcan0 113#02AE825F1EE71746
(1681411572.931513) vcan0 104#7DE641593605F05D
(1681411572.931512) vcan0 118#796B1F31C06A8C45
(1681411572.931516) vcan0 106#34180657DA721C6F
(1681411572.931527) vcan0 123#145CBE21ED43C22D
(1681411572.931548) vcan0 119#C551A30F0D57A35B
(1681411572.931548) vcan0 111#D919BC24993C2C7B
(1681411572.931552) vcan0 107#1B789F624407C654
(1681411572.931553) vcan0 120#B76B97642B406B64
(1681411572.931574) vcan0 124#02C758083FF5F543
(1681411572.931592) vcan0 103#5984022AAFEDD341
(1681411572.931592) vcan0 105#D6C78C1F864BB777
(1681411572.931627) vcan0 116#E6DA4D3D9D9FBB52
(1681411572.931628) vcan0 101#95225F5D302C4034
(1681411572.931656) vcan0 121#568F8224F5DEF145
(1681411572.931670) vcan0 117#0E22AE1F6718DB43
(1681411573.132091) vcan0 109#295762378264A716
(1681411573.132088) vcan0 121#367FDA4B71751574
(1681411573.132096) vcan0 119#25BADE73C3602239
(1681411573.132095) vcan0 107#2D0AA16D287C4405
(1681411573.132094) vcan0 122#C168D75600FCE00F
(1681411573.132101) vcan0 103#5476654A63A8A505
(1681411573.132100) vcan0 112#2D60FC2BCAFCC809
(1681411573.132103) vcan0 113#3F46BA754C2FE739
(1681411573.132156) vcan0 120#A74D14412B4E596A
(1681411573.132158) vcan0 116#AD0F7425B1229A4E
(1681411573.132159) vcan0 110#B8A512495CC3470D
(1681411573.132161) vcan0 114#A0C74838E602B179
(1681411573.132162) vcan0 124#2D444C16C4A2B80C
(1681411573.132164) vcan0 108#BF87C45799EBD20B
(1681411573.132163) vcan0 105#DC84A370AB16F13E
(1681411573.132196) vcan0 102#009A3074963E1D4E
(1681411573.132198) vcan0 115#E7CA91181C20D41F
(1681411573.132200) vcan0 101#F0794A4C21A75333
(1681411573.132220) vcan0 111#4383136BBD539960
(1681411573.132253) vcan0 118#6D7B770590E90B53
(1681411573.132252) vcan0 104#5ABD18731AE92521
(1681411573.132279) vcan0 106#738D6B6DCD3BC747
(1681411573.132292) vcan0 117#0CBBC94F929B3522
(1681411573.132291) vcan0 100#058AC74767B05006
(1681411573.132304) vcan0 125#6239FC446B66767B
(1681411573.132329) vcan0 123#D8ACE3302D480C05
(1681411573.332793) vcan0 119#0AC5776D99B0BE37
(1681411573.332796) vcan0 112#BC856955902E8277
(1681411573.332797) vcan0 117#B4C8653B901BE406
(1681411573.332799) vcan0 107#42C9144F6A99A132
(1681411573.332802) vcan0 113#DB226436D666DC36
(1681411573.332828) vcan0 102#1B89E6198A001E29
(1681411573.332835) vcan0 122#AAD7335D1C17CA70
(1681411573.332837) vcan0 110#0B535F191C17A265
(1681411573.332874) vcan0 121#C4502A427FABEB0A
(1681411573.332879) vcan0 118#D8D9D47DA38D842B
(1681411573.332878) vcan0 104#51BCD968473F693D
(1681411573.332881) vcan0 101#73D0057CA0B0F821
(1681411573.332883) vcan0 120#C4DC053C2C9BCE1A
(1681411573.332889) vcan0 109#63935C325704435C
(1681411573.332920) vcan0 103#9FFA2261CDFE796B
(1681411573.332921) vcan0 100#4A95E1225F93FA46
(1681411573.332925) vcan0 115#A6EB2A5488504074
(1681411573.332925) vcan0 105#F3D1481736A7DD6F
(1681411573.332923) vcan0 124#E8D3737CF8A85567
(1681411573.332953) vcan0 106#2B0E6145EB933658
(1681411573.332962) vcan0 125#B0E25B1094F8FA47
(1681411573.332963) vcan0 114#D6FD0226C4ED3C44
(1681411573.332964) vcan0 108#3D6C7E6D2C6FE005
(1681411573.332994) vcan0 123#80F054269C34AC16
(1681411573.332999) vcan0 116#F060B749F573DA00
(1681411573.333033) vcan0 111#10CE404CA620411B
(1681411573.533544) vcan0 109#752C0D2D0934BE14
(1681411573.533540) vcan0 125#E684B33889C74F41
(1681411573.533543) vcan0 124#1A44BA12C8420F2D
(1681411573.533546) vcan0 107#42DA3F3BD6FB3545
(1681411573.533550) vcan0 123#996869531C7CFE74
(1681411573.533553) vcan0 118#2130AE144D1E7458
(1681411573.533552) vcan0 104#AC87354F23B40524
(1681411573.533555) vcan0 103#8A5B9E1DAF649615
(1681411573.533605) vcan0 105#D123DF37E05A3C19
(1681411573.533612) vcan0 121#571B375E2B0BCE24
(1681411573.533613) vcan0 102#3080B41E06C8346D
(1681411573.533615) vcan0 117#72CE857499E83B33
(1681411573.533614) vcan0 112#757D8A752A6EC66B
(1681411573.533617) vcan0 116#58EC9D5C98BA943B
(1681411573.533618) vcan0 108#9B9D231DE5886118
(1681411573.533643) vcan0 110#73252863AA3DB43D
(1681411573.533649) vcan0 101#88CE304388D6B559
(1681411573.533650) vcan0 106#C701A0494D0ED133
(1681411573.533655) vcan0 122#2E3AE53723F40019
(1681411573.533683) vcan0 119#6F34D61062A26518
(1681411573.533697) vcan0 111#A42550350643435B
(1681411573.533698) vcan0 100#16CB9C0706411D59
(1681411573.533708) vcan0 113#B4C37D706687E50F
(1681411573.533724) vcan0 115#E4339B37F7C76716
(1681411573.533734) vcan0 120#D9049A7FADF0C837
(1681411573.533752) vcan0 114#A4C5015AD52D7915
(1681411573.733801) vcan0 118#9AFC5F640A81253F
(1681411573.733802) vcan0 104#DD9DCF1143FE344E
(1681411573.733817) vcan0 121#90D15330B034435B
(1681411573.733816) vcan0 106#F90D46293A4DF108
(1681411573.733821) vcan0 117#906C8344E8C74A20
(1681411573.733825) vcan0 110#0079DF2256E20729
(1681411573.733834) vcan0 105#07FDC12B6C2AC32D
(1681411573.733836) vcan0 115#5418D91DF2E95B6D
(1681411573.733868) vcan0 102#543C52531AC6F91A
(1681411573.733868) vcan0 103#D290FD407442757B
(1681411573.733873) vcan0 116#8378041A0080062C
(1681411573.733876) vcan0 107#BE5F3A6A72982A7A
(1681411573.733877) vcan0 114#F0AC1323EB2FEF0D
(1681411573.733878) vcan0 125#9735153543457A50
(1681411573.733906) vcan0 108#DE07296804842C7E
(1681411573.733906) vcan0 119#CA6F007DC75BE961
(1681411573.733912) vcan0 124#711E625728A0A73C
(1681411573.733911) vcan0 112#C3BA7572D47D1652
(1681411573.733914) vcan0 122#F254641B0A8FA51F
(1681411573.733915) vcan0 113#ECC84C0349CFA86C
(1681411573.733941) vcan0 111#9A64F442DF954177
(1681411573.733940) vcan0 101#FEF4D6321270FF58
(1681411573.733951) vcan0 100#28F3C9655FAA306D
(1681411573.733968) vcan0 123#720C405B9C30F70A
(1681411573.733975) vcan0 109#03B9D1556F49BF39
(1681411573.733978) vcan0 120#0CA7044630028C79
(1681411573.934531) vcan0 111#EA232750B2FF5F00
(1681411573.934532) vcan0 121#6269BA6B45B9D306
(1681411573.934535) vcan0 103#05D3807EA0A3AD46
(1681411573.934536) vcan0 104#B284D21262F1CC6F
(1681411573.934541) vcan0 116#145E1F04D6384112
(1681411573.934540) vcan0 114#E05F282BEE8C0D60
(1681411573.934545) vcan0 110#09F45706B7137939
(1681411573.934546) vcan0 105#DEA3ED69E5B36F56
(1681411573.934596) vcan0 119#8778453330922A6D
(1681411573.934602) vcan0 118#BCD8007D32CBAC1C
(1681411573.934601) vcan0 101#A3664961F05B9012
(1681411573.934603) vcan0 112#EAA4DF3A6D08575E
(1681411573.934604) vcan0 117#5538DF7129649C33
(1681411573.934606) vcan0 125#4CAE4B39FC599644
(1681411573.934607) vcan0 107#28462C70B2002168
(1681411573.934635) vcan0 106#61B5CC69FD63A66A
(1681411573.934639) vcan0 100#FA61A8018AECDD73
(1681411573.934643) vcan0 124#EC4E0A5B5E920926
(1681411573.934644) vcan0 115#6A15BE5E7249F001
(1681411573.934646) vcan0 113#B3F2907CAA9DBE73
(1681411573.934647) vcan0 122#E6E9650BDA97331C
(1681411573.934664) vcan0 102#C521CB7D0F051623
(1681411573.934674) vcan0 109#4F5B545F0305FE5B
(1681411573.934680) vcan0 120#591CDF1255B4F14D
(1681411573.934707) vcan0 108#B1F5812BE3FAA94C
(1681411573.934744) vcan0 123#6A49FD47E69B3418
(1681411574.135223) vcan0 116#7F854D2EABCE4623
(1681411574.135222) vcan0 115#0C64FF07A9DA090B
(1681411574.135227) vcan0 104#0840AD4738DE4172
(1681411574.135226) vcan0 103#744DC36472EAD63C
(1681411574.135230) vcan0 113#BA927B6EFA939E0A
(1681411574.135231) vcan0 122#A2089D65C9180922
(1681411574.135234) vcan0 108#E401DE77CD8CE22E
(1681411574.135236) vcan0 119#C0DACD52C227156E
(1681411574.135288) vcan0 114#40C68871B289921C
(1681411574.135293) vcan0 109#8693FD41737B0413
(1681411574.135294) vcan0 110#77E08E5D8560EA0B
(1681411574.135295) vcan0 105#1B57442963EA670C
(1681411574.135297) vcan0 102#93795E3ABA468A26
(1681411574.135299) vcan0 106#5329D6514217975D
(1681411574.135299) vcan0 117#E60F1179A2359D2B
(1681411574.135331) vcan0 100#517C1543D8E6316A
(1681411574.135338) vcan0 112#21CFAE41E8CEF545
(1681411574.135337) vcan0 111#4DA0E611F7156910
(1681411574.135371) vcan0 124#03DB9B2E7D27032E
(1681411574.135373) vcan0 121#CF73C01CDCECE700
(1681411574.135379) vcan0 123#2765AC61738F2D47
(1681411574.135378) vcan0 101#22314D0528DA431B
(1681411574.135413) vcan0 120#7380617405DD8C3A
(1681411574.135416) vcan0 125#C4991A13EEAB2E27
(1681411574.135418) vcan0 107#F5950D0100C0DC43
(1681411574.135429) vcan0 118#FB34116FC4A36756
(1681411574.335905) vcan0 107#E7CC154515B93A3E
(1681411574.335901) vcan0 113#0A5B2D06F0BCC22C
(1681411574.335904) vcan0 100#5008614CB4F8EE00
(1681411574.335907) vcan0 104#32181C23BF4BEC7E
(1681411574.335911) vcan0 111#F6824950067F7861
(1681411574.335910) vcan0 119#F21BBD1F645F3F50
(1681411574.335916) vcan0 117#EA92FC2838A43806
(1681411574.335915) vcan0 114#6B2AEF5D699BA444
(1681411574.335968) vcan0 101#DB16283DB900246D
(1681411574.335969) vcan0 123#7AA98671F5ED3A1F
(1681411574.335971) vcan0 106#0DF90E24EAA94735
(1681411574.335973) vcan0 103#BCF0456C4C3B3A45
(1681411574.335974) vcan0 125#B0AB907EE6CCE900
(1681411574.335977) vcan0 124#71F6FE1CF10F7522
(1681411574.336007) vcan0 105#D69D7F40C4A61503
(1681411574.336008) vcan0 122#4009BE1643C2974A
(1681411574.336010) vcan0 112#E910D27AEB5A5E4C
(1681411574.336011) vcan0 108#ABC1AA55A5EAA217
(1681411574.336015) vcan0 118#CDB79D599341971A
(1681411574.336017) vcan0 115#3212B7718C9DB502
(1681411574.336034) vcan0 102#ACEDD34669272D64
(1681411574.336042) vcan0 110#F032DF0EDF939E08
(1681411574.336045) vcan0 121#C2F16246ABAD5019
(1681411574.336053) vcan0 109#7BD0D54468E17B18
(1681411574.336058) vcan0 120#86827315049F4650
(1681411574.336077) vcan0 116#7FD75404C5EBFA68
(1681411574.536463) vcan0 105#E61EC40EEF22F07D
(1681411574.536462) vcan0 110#1DEB3B568D788379
(1681411574.536468) vcan0 108#EA7D9664430BC376
(1681411574.536466) vcan0 119#B227FB5FCF0FB830
(1681411574.536471) vcan0 100#67F72B7B3CA65F3A
(1681411574.536472) vcan0 104#B203DE749F59A938
(1681411574.536477) vcan0 125#8868E4389F933777
(1681411574.536476) vcan0 115#15063B306C271F27
(1681411574.536527) vcan0 113#475FF45F02E77745
(1681411574.536532) vcan0 121#90A7E150370B9276
(1681411574.536531) vcan0 112#AD68603400517A71
(1681411574.536534) vcan0 109#99F57B7271B16C46
(1681411574.536536) vcan0 102#0AAC4E368C444961
(1681411574.536537) vcan0 124#77895D4234B9A772
(1681411574.536538) vcan0 120#D42BD6500E101D7C
(1681411574.536572) vcan0 111#9C8ACD1389E54F17
(1681411574.536570) vcan0 116#C28C9B42C922176B
(1681411574.536577) vcan0 114#486A5402B0F90C04
(1681411574.536577) vcan0 106#FB11F1070EDE3C1B
(1681411574.536600) vcan0 122#D0DA1A68A081B032
(1681411574.536616) vcan0 123#06152953109D5C75
(1681411574.536617) vcan0 103#AFDDD30FF0BDFE1C
(1681411574.536641) vcan0 107#D15D894EDADBF10D
(1681411574.536643) vcan0 101#954C4336561CAC4F
(1681411574.536654) vcan0 117#BBC8CA43BE65C423
(1681411574.536671) vcan0 118#F19D46393F8A9839
(1681411574.737168) vcan0 111#05DEEB3BE3710C51
(1681411574.737167) vcan0 116#7F5914204D40B167
(1681411574.737171) vcan0 113#DAADEA33D0CA7F03
(1681411574.737173) vcan0 105#239E882B8C44A106
(1681411574.737176) vcan0 114#3C837476630A567F
(1681411574.737177) vcan0 125#E8562A232F411767
(1681411574.737182) vcan0 123#E17F806AE1ABFE0A
(1681411574.737181) vcan0 103#4D591B662B728910
(1681411574.737232) vcan0 108#919FC86816399125
(1681411574.737238) vcan0 112#4668A6038E5BAE7F
(1681411574.737240) vcan0 122#60E26B144EA15820
(1681411574.737242) vcan0 100#0BB2492C2674245D
(1681411574.737243) vcan0 104#F9960B5AE6E44969
(1681411574.737245) vcan0 115#EB4C38789435494D
(1681411574.737279) vcan0 107#C2F4784602101370
(1681411574.737278) vcan0 109#8F70FF54CD1D0353
(1681411574.737281) vcan0 117#6FF3874440994E3D
(1681411574.737299) vcan0 121#9E713714CC836864
(1681411574.737298) vcan0 102#8909445D2C76C16B
(1681411574.737307) vcan0 106#27B0F13E85E26043
(1681411574.737309) vcan0 119#2221091BD9781D43
(1681411574.737315) vcan0 110#E44FB167F22E5F4D
(1681411574.737338) vcan0 124#F9679A4D7F842C46
(1681411574.737346) vcan0 118#DD5F9C10E1779E6E
(1681411574.737349) vcan0 101#CCCE0D7106D1BF7F
(1681411574.737352) vcan0 120#65B85B21163E7909
(1681411574.937391) vcan0 123#4C56832739A9876D
(1681411574.937390) vcan0 103#CA40801694ACF70C
(1681411574.937405) vcan0 111#3CF96779836B7337
(1681411574.937423) vcan0 100#469D5E062E196D63
(1681411574.937426) vcan0 122#15EEF940E8F8936C
(1681411574.937427) vcan0 108#AFC9CA42CFEBA45D
(1681411574.937432) vcan0 115#ACCFE82870CF1A75
(1681411574.937457) vcan0 106#3D68F762DC1D4A72
(1681411574.937462) vcan0 118#13A3E71F5D6ECF0E
(1681411574.937469) vcan0 119#55B0E97F562C4578
(1681411574.937474) vcan0 117#61FEB27FD7A4863A
(1681411574.937475) vcan0 112#626B9843F5CE5D6E
(1681411574.937477) vcan0 104#C636A17107EBBE02
(1681411574.937478) vcan0 102#D6EF8E2251F0C16D
(1681411574.937509) vcan0 101#BABB6C75AFB1F27D
(1681411574.937512) vcan0 110#944D74246F85D370
(1681411574.937514) vcan0 120#DFC22D7F1AC1FC1C
(1681411574.937538) vcan0 107#89251C2B20DCBE4E
(1681411574.937542) vcan0 114#7414C1405AA80065
(1681411574.937541) vcan0 121#7C3DBE1894AB094E
(1681411574.937547) vcan0 116#1708F31404038C5C
(1681411574.937579) vcan0 113#A57A957C7DAEC110
(1681411574.937587) vcan0 125#E95ABB2D58C69339
(1681411574.937601) vcan0 105#29023468301C661A
(1681411574.937607) vcan0 109#4D1084350E5CE95E
(1681411574.937632) vcan0 124#6EA07A4CA6F5EC76
(1681411575.137673) vcan0 123#75BE240BE9B5B650
(1681411575.137674) vcan0 103#B1FDDA6FE13DC059
(1681411575.137677) vcan0 108#9E0CAB3383304D08
(1681411575.137682) vcan0 122#4358EC0337C97252
(1681411575.137680) vcan0 118#0722BF75423F3C16
(1681411575.137687) vcan0 101#9B71906D6E2A7636
(1681411575.137686) vcan0 117#30EA3E1BE65E8312
(1681411575.137689) vcan0 115#C6D3A36A8AAC0F63
(1681411575.137739) vcan0 110#5739E470C5CF451C
(1681411575.137740) vcan0 121#6BD919435D3A5B20
(1681411575.137743) vcan0 119#61E4D854A26F974C
(1681411575.137744) vcan0 104#63CD2B13586A4C5B
(1681411575.137745) vcan0 100#9BFD2B65BE1C1640
(1681411575.137747) vcan0 112#C8BE5A4AE583394A
(1681411575.137780) vcan0 107#6EF83C0A60F80561
(1681411575.137779) vcan0 125#68DF746D518EF965
(1681411575.137782) vcan0 116#76BD3050CC9B644C
(1681411575.137783) vcan0 105#31BB25405CF29A1A
(1681411575.137785) vcan0 124#F390EC10FFD6F268
(1681411575.137784) vcan0 102#E069C67E42AFE013
(1681411575.137817) vcan0 114#03E3E95CF5297C1A
(1681411575.137818) vcan0 111#F0167A4BC1E7AE33
(1681411575.137823) vcan0 109#698CEE3359883B7A
(1681411575.137853) vcan0 120#456B4810FCE49B66
(1681411575.137855) vcan0 113#DD010210BD734471
(1681411575.137882) vcan0 106#B7F3F21A5C0C6A6C
(1681411575.338403) vcan0 122#832E8B16D54C3001
(1681411575.338402) vcan0 107#1FD98C7ACC42E00A
(1681411575.338405) vcan0 118#256A930E2BECDD15
(1681411575.338410) vcan0 104#C29AC33CDBC58A2A
(1681411575.338408) vcan0 123#7E2BD3704D955B4E
(1681411575.338413) vcan0 117#18207E2CFE0EA47C
(1681411575.338414) vcan0 105#B4B3AA2F56E99903
(1681411575.338416) vcan0 110#A8AE8322A23F874D
(1681411575.338467) vcan0 125#FACF774330DC8535
(1681411575.338472) vcan0 102#2CC9332101102E71
(1681411575.338474) vcan0 124#E6D1D55F91CE2479
(1681411575.338475) vcan0 109#70E11140455E8541
(1681411575.338476) vcan0 116#CEA4FD05F5160731
(1681411575.338477) vcan0 111#73056868D4EBA918
(1681411575.338479) vcan0 100#2653E3292BD6BF6D
(1681411575.338505) vcan0 120#42A831452D488D47
(1681411575.338509) vcan0 115#B110D93654C5D137
(1681411575.338514) vcan0 119#A5B6A85055545D33
(1681411575.338515) vcan0 114#78128506AE7E1835
(1681411575.338516) vcan0 101#84B8783FFDF09A76
(1681411575.338547) vcan0 103#906CCB305AE1C71C
(1681411575.338562) vcan0 106#BE294E1A8554AA48
(1681411575.338571) vcan0 108#BE0B1232CB7A9841
(1681411575.338573) vcan0 112#1CB8A90EAC800505
(1681411575.338603) vcan0 113#6422F32AA23C057D
(1681411575.338606) vcan0 121#BAA9616670B73623
(1681411575.539133) vcan0 114#3B19394754B86F73
(1681411575.539132) vcan0 118#68104A7B17DA1511
(1681411575.539129) vcan0 101#DC164657A94E3837
(1681411575.539137) vcan0 123#1799190DDC9F0C4A
(1681411575.539138) vcan0 119#197E6E66DEAF110A
(1681411575.539140) vcan0 112#ECFDDE39CB9C2626
(1681411575.539143) vcan0 122#BA1AD718E0298416
(1681411575.539144) vcan0 125#2AA5B00599FC7412
(1681411575.539194) vcan0 105#DC40BF7D537A0158
(1681411575.539199) vcan0 115#78D0526FD0371837
(1681411575.539200) vcan0 106#B383E17C2B8D8052
(1681411575.539203) vcan0 103#91A85C07C284D42A
(1681411575.539202) vcan0 110#13913714AD1C6F09
(1681411575.539205) vcan0 120#63CD0F2327A02A65
(1681411575.539204) vcan0 109#CE468C1542805113
(1681411575.539235) vcan0 104#BA68A13A9CFCDF35
(1681411575.539240) vcan0 113#75E49C6DA00F442E
(1681411575.539243) vcan0 108#144D3E3CB45A423F
(1681411575.539243) vcan0 124#9E008261C717C91B
(1681411575.539261) vcan0 121#2C1B2670E4B0F74A
(1681411575.539263) vcan0 117#C6F7E85DDE8E3201
(1681411575.539279) vcan0 102#7A37D973569EBA39
(1681411575.539286) vcan0 111#7B29E02BDFCF975D
(1681411575.539299) vcan0 107#CA195C7BD824B91D
(1681411575.539316) vcan0 116#DB65924C968D3160
(1681411575.539341) vcan0 100#1BCA2E3C5B1B0C49
(1681411575.739859) vcan0 116#3DAF713E0131991C
(1681411575.739860) vcan0 113#FC0BD123E273DC77
(1681411575.739863) vcan0 118#E610CF259B300E77
(1681411575.739867) vcan0 104#C766C544A38B661C
(1681411575.739866) vcan0 101#1D5FBE7E46967248
(1681411575.739872) vcan0 122#1D6B647FCC1E3F12
(1681411575.739871) vcan0 125#06A5A54AD4179E48
(1681411575.739874) vcan0 120#6C0C791E1B137F21
(1681411575.739924) vcan0 123#AA8AB12B3D07E034
(1681411575.739929) vcan0 112#F6C33F5E09C2BE1D
(1681411575.739930) vcan0 121#7DF46B5FA780F470
(1681411575.739931) vcan0 105#A1123275C9454D05
(1681411575.739933) vcan0 117#DF1CAB44535C1C08
(1681411575.739934) vcan0 108#362B4F59FB7D254D
(1681411575.739935) vcan0 124#88976C221F918E02
(1681411575.739970) vcan0 114#6B46946A04BE1B15
(1681411575.739970) vcan0 106#57587D2FBFE51C4C
(1681411575.739972) vcan0 102#1E707E122A4C274C
(1681411575.739973) vcan0 107#C371C812958CD33E
(1681411575.740005) vcan0 111#16AEA6017459AE1D
(1681411575.740013) vcan0 109#7CD00759CA2E4205
(1681411575.740012) vcan0 100#CB66BD434A3DCB57
(1681411575.740044) vcan0 115#7CC0F16F9AE0CB4D
(1681411575.740047) vcan0 119#FE2B5E5F28659443
(1681411575.740050) vcan0 110#84D3F91944D77A60
(1681411575.740074) vcan0 103#B83EC1325B21F558
(1681411575.940592) vcan0 114#E56DB06832FC1463
(1681411575.940591) vcan0 120#4E5ACA2123781003
(1681411575.940597) vcan0 102#8B063D1853209B08
(1681411575.940595) vcan0 107#4608924EDEE96775
(1681411575.940600) vcan0 104#A58CEE71444D071E
(1681411575.940604) vcan0 118#B3D280725F7CEE56
(1681411575.940603) vcan0 111#D3D17F33EFC76226
(1681411575.940606) vcan0 123#D806B86EBEE66F4D
(1681411575.940659) vcan0 106#F03E7D088C708306
(1681411575.940659) vcan0 101#F6EC4D1AB2811D5C
(1681411575.940661) vcan0 113#6FFC950FFFB95303
(1681411575.940663) vcan0 125#975E3C3B60080E05
(1681411575.940664) vcan0 122#15360D08F92B3829
(1681411575.940666) vcan0 109#3A569B4D75906A54
(1681411575.940665) vcan0 100#C797F815478DF714
(1681411575.940699) vcan0 115#168BAA17C804FB5B
(1681411575.940701) vcan0 119#6B45455DC47D016F
(1681411575.940702) vcan0 110#EB826326830DFD25
(1681411575.940750) vcan0 124#E7F2BE718A5EC52A
(1681411575.940749) vcan0 112#05990C59B4A62232
(1681411575.940776) vcan0 105#2149081777DABE14
(1681411575.940789) vcan0 117#75CF3B7BED3E5964
(1681411575.940788) vcan0 103#AF31D42A11C3C35C
(1681411575.940803) vcan0 108#D9B2747CF5A00C33
(1681411575.940835) vcan0 116#F2F74A5D238ABF7B
(1681411575.940849) vcan0 121#E8C31427D383EE03
(1681411576.141097) vcan0 124#5E86844614370B08
(1681411576.141095) vcan0 114#9FA6BE218535F920
(1681411576.141100) vcan0 107#D99399137412333C
(1681411576.141104) vcan0 115#3FC1E837FE553C30
(1681411576.141102) vcan0 119#35BC371F90FF2351
(1681411576.141107) vcan0 118#5B9B9A3C204EF877
(1681411576.141108) vcan0 121#9D5FE6361F43EF72
(1681411576.141110) vcan0 113#015BF43DAE425005
(1681411576.141161) vcan0 103#0B0FC91A03A83975
(1681411576.141165) vcan0 102#0993923C8BA06D0C
(1681411576.141168) vcan0 111#0D96DA181655931E
(1681411576.141167) vcan0 100#5FC02760CC21C05D
(1681411576.141170) vcan0 105#4F91047DFDCDAB07
(1681411576.141197) vcan0 110#4CCF1449A328766F
(1681411576.141199) vcan0 112#14A6044A32F90805
(1681411576.141208) vcan0 109#251EA21364ADFD04
(1681411576.141207) vcan0 123#2B4BA262B0B39B1F
(1681411576.141209) vcan0 108#F9C1B876993A3954
(1681411576.141215) vcan0 125#44DA667EFA973800
(1681411576.141215) vcan0 106#9958393B64CCE875
(1681411576.141234) vcan0 104#D990567A004A0765
(1681411576.141242) vcan0 116#9ED0546F9F07BF02
(1681411576.141253) vcan0 122#66B0246AD79EE45E
(1681411576.141265) vcan0 101#76C2B27CE6669866
(1681411576.141269) vcan0 117#BA74F74B818A054B
(1681411576.141308) vcan0 120#4653EA05F5A7DE62
(1681411576.341823) vcan0 115#E524CF7BE5AC130C
(1681411576.341823) vcan0 122#FA27193911885847
(1681411576.341826) vcan0 118#EF65FA2934756F3A
(1681411576.341829) vcan0 123#EB2E7C52AB3BF708
(1681411576.341831) vcan0 113#4BE93A3DDC7D5874
(1681411576.341833) vcan0 108#8E8CDF3E362E3764
(1681411576.341836) vcan0 112#7EA3EB3BD02B6E1F
(1681411576.341837) vcan0 102#E95EB856241C7956
(1681411576.341891) vcan0 107#0666AC7A1C5DAE62
(1681411576.341892) vcan0 125#CB6E8400F5BCC20E
(1681411576.341894) vcan0 114#19FFC55C76A4C147
(1681411576.341895) vcan0 104#5F362D3F2B4D3063
(1681411576.341897) vcan0 121#44F9037861B01079
(1681411576.341898) vcan0 116#D4AC594A8E310C39
(1681411576.341899) vcan0 119#87DE23284081AF0C
(1681411576.341928) vcan0 101#D328710FEA92B878
(1681411576.341932) vcan0 117#7FDA8E066E3D5D07
(1681411576.341934) vcan0 109#F7F4116B88B1FE45
(1681411576.341969) vcan0 124#4E017E37475AF842
(1681411576.341989) vcan0 120#4FC6696D0B30F041
(1681411576.341992) vcan0 103#746B6962AA09EC7B
(1681411576.341996) vcan0 105#23F1AF5343634D14
(1681411576.342019) vcan0 110#E0D0443357227462
(1681411576.342021) vcan0 111#AC1BFC061D641B65
(1681411576.342045) vcan0 100#AE3D481BAA550903
(1681411576.342070) vcan0 106#59AC4A4EC4669A00
(1681411576.542553) vcan0 103#D1A6B360FEC60700
(1681411576.542557) vcan0 113#85A92C3CFFACB82D
(1681411576.542556) vcan0 123#4DE847368597E525
(1681411576.542559) vcan0 115#86A67C24C9586A33
(1681411576.542562) vcan0 117#12A6E951F2A8147B
(1681411576.542568) vcan0 114#49233665BDC4C736
(1681411576.542566) vcan0 118#C3DB7C231196A83E
(1681411576.542565) vcan0 108#C5A9195A292A035C
(1681411576.542620) vcan0 101#861791085CF7A152
(1681411576.542622) vcan0 109#BBB140616D211F18
(1681411576.542624) vcan0 116#947B99032C99F726
(1681411576.542625) vcan0 112#C3278B7CF3207631
(1681411576.542627) vcan0 110#BF3F185553F66C16
(1681411576.542646) vcan0 105#34758977F4148F0B
(1681411576.542649) vcan0 120#2143AD7D28CB036D
(1681411576.542665) vcan0 124#0CE0606F6945384A
(1681411576.542664) vcan0 125#8E903348B1F33739
(1681411576.542692) vcan0 111#BC75D43951414C3C
(1681411576.542700) vcan0 104#478970220BBE620E
(1681411576.542699) vcan0 106#4F601F4E20AEEA17
(1681411576.542717) vcan0 100#2CB5BA24C508E522
(1681411576.542735) vcan0 122#F3B5AE4F2862FE70
(1681411576.542738) vcan0 121#9EEEDA7D9B143B56
(1681411576.542746) vcan0 102#15A18B3519DF6C75
(1681411576.542766) vcan0 107#DEABD46E4840EC35
(1681411576.542772) vcan0 119#2AB0E208F712FA38
(1681411576.743283) vcan0 125#7E84125025C6487D
(1681411576.743285) vcan0 117#0726993AA2126D16
(1681411576.743288) vcan0 115#DC747B22DABE5542
(1681411576.743291) vcan0 123#C7B7F57DBFF48711
(1681411576.743292) vcan0 113#42053E047172793F
(1681411576.743297) vcan0 101#72696E52850C683B
(1681411576.743295) vcan0 118#8193E3125DD8DC07
(1681411576.743299) vcan0 119#A2231525F41FE305
(1681411576.743352) vcan0 114#4BD23A5D3AD04908
(1681411576.743353) vcan0 124#0F9D07707DFEC246
(1681411576.743355) vcan0 111#23A75E4057DAC87C
(1681411576.743357) vcan0 104#4E01360724274034
(1681411576.743356) vcan0 106#11756B34496E6577
(1681411576.743359) vcan0 102#2AE4AD436ADDDD08
(1681411576.743385) vcan0 108#1BB7987CA3B14242
(1681411576.743391) vcan0 107#F258E4279C0B0F59
(1681411576.743393) vcan0 122#347C5960E50A136B
(1681411576.743398) vcan0 100#B096265C54A8840A
(1681411576.743414) vcan0 121#8CBBDE1D2EC02E2E
(1681411576.743447) vcan0 112#FA99340B86E2006F
(1681411576.743446) vcan0 109#91E5BC5ABE6A1237
(1681411576.743467) vcan0 120#B820B9792DEAB143
(1681411576.743471) vcan0 105#23BE892D3B724B23
(1681411576.743484) vcan0 103#596E8211A337B121
(1681411576.743499) vcan0 116#26ECA07418F49D1D
(1681411576.743506) vcan0 110#01602820C0B8F777
(1681411576.944016) vcan0 105#603F523902627717
(1681411576.944015) vcan0 118#1B17CE7D3E6CE40F
(1681411576.944019) vcan0 113#487C611AF5F7CE00
(1681411576.944022) vcan0 101#6E67A12B15D0B733
(1681411576.944027) vcan0 123#21C8DC303201F345
(1681411576.944025) vcan0 107#BAD816301A9F1018
(1681411576.944029) vcan0 125#F538B209CA325E09
(1681411576.944031) vcan0 114#A8F4B6442C326308
(1681411576.944084) vcan0 119#BE6EE31A2A9C5A58
(1681411576.944086) vcan0 122#33F1A3101A66BF6B
(1681411576.944088) vcan0 112#C89E8C03E53E1446
(1681411576.944087) vcan0 109#DC6ADE51E040113A
(1681411576.944090) vcan0 117#DA705F1B5D5E782C
(1681411576.944089) vcan0 121#4C497E31EE249909
(1681411576.944110) vcan0 100#24B31510ABF8CE5D
(1681411576.944126) vcan0 115#BC42C620468A3901
(1681411576.944127) vcan0 120#59CD8F66113D980C
(1681411576.944128) vcan0 103#72097D7B5E410310
(1681411576.944129) vcan0 110#AAD8743F0B548026
(1681411576.944165) vcan0 104#4EBC975C0086081A
(1681411576.944188) vcan0 102#33A56610EF057941
(1681411576.944187) vcan0 116#2D19FE523A4AC078
(1681411576.944197) vcan0 111#30D78D330DCB8510
(1681411576.944218) vcan0 106#5BFBDB20732A381E
(1681411576.944237) vcan0 108#2DAE2F5ACDAC1A28
(1681411576.944245) vcan0 124#91E5DF06FCEB114B
(1681411577.144750) vcan0 115#4D084644C8A6C528
(1681411577.144753) vcan0 111#09DA287D7D777445
(1681411577.144755) vcan0 118#8FA38924164CDF6C
(1681411577.144757) vcan0 104#86180D2456FC4424
(1681411577.144758) vcan0 110#77CC703121B9031D
(1681411577.144763) vcan0 107#4F0C3041AF6E2431
(1681411577.144762) vcan0 120#829EA311CC4DF15A
(1681411577.144765) vcan0 122#BFA24607D5F94076
(1681411577.144842) vcan0 124#DB90CC6C95C07B35
(1681411577.144844) vcan0 116#EE2CDF2FAC9E4B01
(1681411577.144845) vcan0 113#1C103833020FDD08
(1681411577.144846) vcan0 123#A590BC29482D8912
(1681411577.144851) vcan0 121#747902351BBD3E4E
(1681411577.144879) vcan0 106#46D20B62AE24B272
(1681411577.144881) vcan0 103#43DB5E68E7564060
(1681411577.144894) vcan0 105#2026BB797B969662
(1681411577.144898) vcan0 125#2120DF41B9D2CC1C
(1681411577.144914) vcan0 114#285D5768E8BA3F36
(1681411577.144931) vcan0 109#C26F101363FEDB13
(1681411577.144933) vcan0 101#7568F84D9098EE30
(1681411577.144934) vcan0 119#25B20D737E49B16D
(1681411577.144935) vcan0 112#F3EA574DE96D3B45
(1681411577.144945) vcan0 102#79E2F32BC61EC54A
(1681411577.144972) vcan0 108#86ACEC0E12B00D52
(1681411577.144973) vcan0 100#DF94627E762F2B53
(1681411577.144974) vcan0 117#CB76094AC1807014
(1681411577.345483) vcan0 110#90B46A3267FF4F40
(1681411577.345484) vcan0 103#D02BDA4CFFCBA454
(1681411577.345480) vcan0 112#CD0D0A0CDDFB2948
(1681411577.345487) vcan0 120#161A254708211727
(1681411577.345491) vcan0 107#1A5FED5B36D94506
(1681411577.345490) vcan0 122#E37EC80D00AC041E
(1681411577.345493) vcan0 118#02104C665D5B277E
(1681411577.345495) vcan0 116#E518071C6E043434
(1681411577.345547) vcan0 101#3EAAFB4E507F200B
(1681411577.345551) vcan0 108#9A39FD56326E9764
(1681411577.345550) vcan0 125#B8DE8C30D1CB6F40
(1681411577.345553) vcan0 115#EF64430C7F1AFD35
(1681411577.345554) vcan0 113#EF8B6D0B266B6539
(1681411577.345556) vcan0 106#B541CF7B53CB1A06
(1681411577.345557) vcan0 119#ECC36F4617CECA12
(1681411577.345585) vcan0 111#05E1EE20FF5C724D
(1681411577.345586) vcan0 102#A94C036825D0C772
(1681411577.345590) vcan0 124#791315794D87CB09
(1681411577.345592) vcan0 104#38644A0CB8302947
(1681411577.345624) vcan0 121#CA11810A366B657B
(1681411577.345638) vcan0 109#54BC154D3D40E657
(1681411577.345645) vcan0 114#DEBBF52493874646
(1681411577.345652) vcan0 105#654CDF23F6C33A3A
(1681411577.345660) vcan0 123#A590200D1F3A431B
(1681411577.345676) vcan0 100#83DF00482F9DC34A
(1681411577.345677) vcan0 117#FF931558B5090673
(1681411577.545755) vcan0 120#D0EC372BEA45FB17
(1681411577.545754) vcan0 107#C4275F6FEBBC762A
(1681411577.545758) vcan0 108#B79AB06984B7933B
(1681411577.545761) vcan0 122#18BCD840B359E375
(1681411577.545762) vcan0 113#F2CB9F3537EB616B
(1681411577.545766) vcan0 102#2F46F22EB3F8511E
(1681411577.545767) vcan0 118#AA8D7607F3AD921F
(1681411577.545769) vcan0 125#9F9FB61D40477169
(1681411577.545815) vcan0 100#2A281A54EAD62C43
(1681411577.545821) vcan0 101#4A99121ED3F63E05
(1681411577.545822) vcan0 116#718A466AA8A5A25E
(1681411577.545824) vcan0 115#54447B2B056B7E3C
(1681411577.545825) vcan0 111#84F6EC26A16BBC34
(1681411577.545828) vcan0 106#98CEF927B053C003
(1681411577.545827) vcan0 109#CBDF572CEDB1913F
(1681411577.545858) vcan0 110#014DA225AE9FA608
(1681411577.545859) vcan0 123#3D1BC431ABA54960
(1681411577.545860) vcan0 124#86D0F057F09C723B
(1681411577.545866) vcan0 104#16483123EA672801
(1681411577.545866) vcan0 119#E3A8F03D9EEB6A26
(1681411577.545887) vcan0 103#33927A257F09AE5C
(1681411577.545897) vcan0 121#C76A8F675BB9625B
(1681411577.545896) vcan0 114#5156E47A27264A27
(1681411577.545902) vcan0 112#D4C899117A766A40
(1681411577.545911) vcan0 117#F924A91ABA5CE01B
(1681411577.545934) vcan0 105#3F3DAC654C6BA332
(1681411577.746473) vcan0 104#588AD27F0FDF3C7D
(1681411577.746475) vcan0 123#2FD79F101E9B441C
(1681411577.746476) vcan0 124#8140737C7F388B25
(1681411577.746479) vcan0 111#8842C26489D4D862
(1681411577.746480) vcan0 101#A79BCC5A1668200F
(1681411577.746481) vcan0 109#AEF1521E5A505701
(1681411577.746484) vcan0 116#37274B1FF0E35A0A
(1681411577.746483) vcan0 100#6B43230536DA6300
(1681411577.746543) vcan0 119#E6DD824305CAF958
(1681411577.746545) vcan0 125#705FA73787F6E040
(1681411577.746546) vcan0 113#2852DD7ECD798A69
(1681411577.746548) vcan0 121#6E76F77165DCC67B
(1681411577.746549) vcan0 108#75795A5B483A7952
(1681411577.746550) vcan0 115#EB411C5D4091B323
(1681411577.746551) vcan0 120#1631342336A5934C
(1681411577.746577) vcan0 118#9CE5BF3787ED1218
(1681411577.746580) vcan0 103#F089A37180EB950B
(1681411577.746582) vcan0 122#A02DB550789E4455
(1681411577.746583) vcan0 110#F477D339E59C530D
(1681411577.746584) vcan0 114#4381534A8DD95871
(1681411577.746586) vcan0 117#736FCA166818315F
(1681411577.746587) vcan0 105#E5E62A3862DB3411
(1681411577.746618) vcan0 107#10B53714871CD835
(1681411577.746619) vcan0 112#DD4CA4391B314015
(1681411577.746647) vcan0 106#62A95721BF7EEB66
(1681411577.746677) vcan0 102#B1141154B84F360C
(1681411577.947084) vcan0 100#114B5120B2E0810B
(1681411577.947086) vcan0 116#F5E553464E2F3E34
(1681411577.947089) vcan0 114#8A30A026B895140B
(1681411577.947090) vcan0 122#01FB3B16B51BAF11
(1681411577.947093) vcan0 109#BACF9412FB01D753
(1681411577.947097) vcan0 103#AA7B376DBACA2308
(1681411577.947096) vcan0 110#A0CE055688C5475E
(1681411577.947099) vcan0 119#776488693B8E6C43
(1681411577.947154) vcan0 107#EDCC891A99DA533F
(1681411577.947153) vcan0 105#D8AF44390FE95E20
(1681411577.947156) vcan0 123#8D51486B7C2D2338
(1681411577.947158) vcan0 124#6F219F01F0E0ED48
(1681411577.947160) vcan0 118#D425310EAF88A757
(1681411577.947162) vcan0 101#DAC7FE0461573950
(1681411577.947161) vcan0 111#84DDC805C53B2A5E
(1681411577.947192) vcan0 117#FBF52E59D46D7D16
(1681411577.947191) vcan0 112#08D218403FB83C7D
(1681411577.947198) vcan0 106#363621479F114F04
(1681411577.947248) vcan0 102#DF6E130A8704A076
(1681411577.947258) vcan0 115#99A0C70997110506
(1681411577.947260) vcan0 125#6F88885059BA6265
(1681411577.947261) vcan0 121#273DCB3FEAB3B50A
(1681411577.947287) vcan0 104#D04C726A1EC17371
(1681411577.947292) vcan0 120#00847421F6F36122
(1681411577.947315) vcan0 113#07B6E16ECDCC727B
(1681411577.947321) vcan0 108#9AF024612543251E
(1681411578.147271) vcan0 116#F5E6E6666BA38416
(1681411578.147293) vcan0 122#6097D8414453281A
(1681411578.147295) vcan0 105#93F79A2B096B6A79
(1681411578.147333) vcan0 101#C519130D75398F72
(1681411578.147335) vcan0 100#64F3D063AC487D05
(1681411578.147340) vcan0 109#68AC4060235C8346
(1681411578.147338) vcan0 118#E55BE226DB47F003
(1681411578.147362) vcan0 104#16CAFB7F341A9E7D
(1681411578.147361) vcan0 117#3FBDB7192BE06D74
(1681411578.147383) vcan0 114#E78159568E138A03
(1681411578.147382) vcan0 111#0D404C1A75F44251
(1681411578.147389) vcan0 123#5744CC0902106D76
(1681411578.147397) vcan0 115#B060CE185F746B74
(1681411578.147400) vcan0 107#A7F896045CC5C624
(1681411578.147410) vcan0 102#0A40F879BFD8D908
(1681411578.147427) vcan0 124#252E781C62B28B12
(1681411578.147433) vcan0 112#10009E03D090730A
(1681411578.147436) vcan0 106#9B9C3559ED291462
(1681411578.147443) vcan0 108#17261E3038FDCF14
(1681411578.147465) vcan0 119#5CF63E51D848613E
(1681411578.147466) vcan0 110#5422277EF707EA46
(1681411578.147471) vcan0 120#5066906946EFBC31
(1681411578.147493) vcan0 113#4A284C7AE5B7E37E
(1681411578.147497) vcan0 103#15988D185C79125D
(1681411578.147509) vcan0 125#E0BC747AD867FD3D
(1681411578.147528) vcan0 121#F987D0499216E502
(1681411578.347965) vcan0 116#1ACBA200C38BE46C
(1681411578.347967) vcan0 101#CF81AF0649D28B4C
(1681411578.347969) vcan0 100#70FD974B8B46B40D
(1681411578.347973) vcan0 109#548A124ED88D5220
(1681411578.347974) vcan0 118#F1C7E36D0AC67535
(1681411578.347978) vcan0 105#6BDBF93A47AB455B
(1681411578.347977) vcan0 102#C9B3800A36092C1B
(1681411578.347980) vcan0 125#AB485C4BDA8CEC3D
(1681411578.348034) vcan0 111#8623D9118045B402
(1681411578.348035) vcan0 119#DEFD031001ADE721
(1681411578.348037) vcan0 104#762BC04CD864BF3C
(1681411578.348038) vcan0 124#EFB7E0310C004E7C
(1681411578.348040) vcan0 106#FB1DB97059C68373
(1681411578.348041) vcan0 108#A8737226D6313062
(1681411578.348042) vcan0 115#21BE14696171A74F
(1681411578.348071) vcan0 114#ADBF90255F94DE5C
(1681411578.348079) vcan0 123#65E3D908D56F9F7A
(1681411578.348080) vcan0 103#9B08E461A5045949
(1681411578.348081) vcan0 110#4D958D7AFDD0AA20
(1681411578.348083) vcan0 122#EDE42164E4C56358
(1681411578.348084) vcan0 112#243C76472CB84712
(1681411578.348118) vcan0 120#F2D8FD08930EC22E
(1681411578.348120) vcan0 121#48EE102BB4313230
(1681411578.348122) vcan0 117#BBCC002957DD3546
(1681411578.348154) vcan0 107#FAD25920C7D1237F
(1681411578.348179) vcan0 113#8A40B76CAE4A3F25
(1681411578.548656) vcan0 123#4FA5C8447C7CF315
(1681411578.548653) vcan0 103#B65ADA792CB14069
(1681411578.548658) vcan0 114#3C92A238E8D8C96C
(1681411578.548661) vcan0 112#7C11790F113A5501
(1681411578.548663) vcan0 102#C1E8077A43EB597E
(1681411578.548665) vcan0 107#2808A72FC4ECB51B
(1681411578.548667) vcan0 110#9A4771146126C50E
(1681411578.548669) vcan0 115#B4393D2C998E6758
(1681411578.548725) vcan0 117#29EF117181C4E906
(1681411578.548724) vcan0 101#732A2A69AC98F55D
(1681411578.548727) vcan0 109#69BA080822D19E63
(1681411578.548728) vcan0 118#0734CE1959D82D69
(1681411578.548729) vcan0 122#1AA0581BA7FFF87C
(1681411578.548730) vcan0 105#5F54047D471CB938
(1681411578.548732) vcan0 104#0FE0282831946107
(1681411578.548760) vcan0 113#87F4E87BFF24545A
(1681411578.548764) vcan0 121#03CE1B267409371B
(1681411578.548771) vcan0 106#737EBE2AAEA19A6D
(1681411578.548791) vcan0 100#D71E3D738BC7C607
(1681411578.548839) vcan0 108#03786856BCC0B062
(1681411578.548846) vcan0 125#08448373D5ED0C51
(1681411578.548873) vcan0 120#73374A7955A60D2C
(1681411578.548878) vcan0 111#49E0EC69024DB93D
(1681411578.548892) vcan0 116#60BA8B47F530354D
(1681411578.548893) vcan0 124#F380B00B8DB86213
(1681411578.548918) vcan0 119#2D9DBE71F77B7276
(1681411578.748933) vcan0 104#75619F72D646EE6C
(1681411578.748938) vcan0 115#31A9BF0630FA2E1C
(1681411578.748936) vcan0 101#F320C4039089E867
(1681411578.748937) vcan0 113#4F5A83538400BA1F
(1681411578.748957) vcan0 109#1A0EA433E58A1061
(1681411578.748960) vcan0 122#C4EFE76E370BBD1A
(1681411578.748967) vcan0 118#22A08B46ED449D3F
(1681411578.748971) vcan0 105#9B25473301673672
(1681411578.748999) vcan0 117#356C6847080CBD35
(1681411578.748998) vcan0 114#B34C4E50A7D83623
(1681411578.749003) vcan0 106#84530446CAD63B5A
(1681411578.749006) vcan0 110#AAED192A1E1B6B2E
(1681411578.749005) vcan0 124#D31717187C181D2E
(1681411578.749010) vcan0 112#F8546E3872D5B86D
(1681411578.749023) vcan0 102#8CA7E654DF58860C
(1681411578.749035) vcan0 107#9FF6DC1CEB796F42
(1681411578.749044) vcan0 103#67892D746E999B2C
(1681411578.749046) vcan0 111#60154C605F8E936B
(1681411578.749048) vcan0 121#98E2297B80C28705
(1681411578.749057) vcan0 119#DF5CF92B2CC91C51
(1681411578.749071) vcan0 100#E661C056A385FA36
(1681411578.749082) vcan0 108#8A8C722139A3B72F
(1681411578.749086) vcan0 120#BAAEEC13E043C317
(1681411578.749115) vcan0 125#748961500EE9283E
(1681411578.749127) vcan0 123#B10FAC44F92F7A70
(1681411578.749170) vcan0 116#5919164D9D69FD05
(1681411578.949623) vcan0 119#1FE1063A4BA23E09
(1681411578.949624) vcan0 121#1B8A2B0C81A63E22
(1681411578.949628) vcan0 100#D604925FADF9B86C
(1681411578.949632) vcan0 107#5979895AE6FE6E6B
(1681411578.949630) vcan0 115#346F332647346A1E
(1681411578.949636) vcan0 111#76A6675B33E7CB13
(1681411578.949635) vcan0 118#F5083C60D5720C39
(1681411578.949638) vcan0 106#6D87B7397592814E
(1681411578.949688) vcan0 120#71B98C4D0809B735
(1681411578.949692) vcan0 101#F22E6826E90D121E
(1681411578.949693) vcan0 113#E2983052BE561963
(1681411578.949696) vcan0 114#EC96E50198BAFE38
(1681411578.949695) vcan0 123#BA83D34A89166433
(1681411578.949698) vcan0 108#B73ED62F643FE71D
(1681411578.949699) vcan0 103#87D2354216BB011F
(1681411578.949727) vcan0 105#1162063EBC6E4F4A
(1681411578.949735) vcan0 109#EDFFE06855643F01
(1681411578.949737) vcan0 116#F661CE694B11612A
(1681411578.949736) vcan0 104#D41FC8231AEE8D64
(1681411578.949778) vcan0 117#D420060FAA3BA442
(1681411578.949777) vcan0 102#6D37814A17AE236D
(1681411578.949797) vcan0 110#A5FD3F6F95707D50
(1681411578.949800) vcan0 122#741E380FD925F576
(1681411578.949813) vcan0 124#AC49F115BA0AD609
(1681411578.949825) vcan0 112#1AFC131FFDED7A11
(1681411578.949836) vcan0 125#A905AB190BE89D0B
(1681411579.149915) vcan0 115#F9FE297873301C5E
(1681411579.149918) vcan0 118#4CC18B1650A4D61C
(1681411579.149923) vcan0 106#5647BF6006E0F074
(1681411579.149921) vcan0 124#0677E2580AD0755C
(1681411579.149925) vcan0 111#4E56F611833C4274
(1681411579.149928) vcan0 120#03BCD31AB70C7753
(1681411579.149929) vcan0 105#7841F50660F30A3B
(1681411579.149931) vcan0 107#C963D737330D236E
(1681411579.149982) vcan0 104#1B94F50AADB01E1E
(1681411579.149983) vcan0 112#267CDB1F2EA21869
(1681411579.149988) vcan0 102#3279211576CA1307
(1681411579.149987) vcan0 117#F64A161A8F95FD5A
(1681411579.149991) vcan0 108#2E44C462B0008F26
(1681411579.149990) vcan0 121#53467609B8E91143
(1681411579.150003) vcan0 109#5A1B7B35121E837C
(1681411579.150021) vcan0 110#A1286854F1CC5438
(1681411579.150027) vcan0 100#EA12F24B35C5B93F
(1681411579.150026) vcan0 125#6EF13643EEDF1118
(1681411579.150030) vcan0 123#B816EA3DE5CE752D
(1681411579.150029) vcan0 122#3137F543DACE5C79
(1681411579.150048) vcan0 116#C0F3BC0194322359
(1681411579.150065) vcan0 119#F0461E40559D3E59
(1681411579.150067) vcan0 103#7F5C5F0992E1FE5C
(1681411579.150074) vcan0 113#83BA0D23E3F32410
(1681411579.150094) vcan0 101#420B064469F11A23
(1681411579.150095) vcan0 114#DAD44B068C3DA423
(1681411579.350605) vcan0 124#CF41E11155786010
(1681411579.350608) vcan0 123#3ACAFF52A3456610
(1681411579.350612) vcan0 122#B0C4D9552B5F0E7D
(1681411579.350610) vcan0 118#F5C004313C278640
(1681411579.350614) vcan0 110#3899F33F81F9AC07
(1681411579.350616) vcan0 125#0580D60B3960BB43
(1681411579.350619) vcan0 106#D95E6A44AFF3092F
(1681411579.350620) vcan0 117#2BC6A90D7525A520
(1681411579.350673) vcan0 107#5A11A227CFC98332
(1681411579.350675) vcan0 120#FDB0951852823D08
(1681411579.350676) vcan0 119#DBA1625A77254268
(1681411579.350678) vcan0 113#6C996968CEA34860
(1681411579.350679) vcan0 111#493C5F32FB71F218
(1681411579.350681) vcan0 102#A24E91791BD8D96B
(1681411579.350682) vcan0 116#EA18202D95A0164C
(1681411579.350709) vcan0 114#1EF0F759F3D31163
(1681411579.350713) vcan0 105#BA3CFB519B32A55A
(1681411579.350714) vcan0 103#1A633B14F3C7C86B
(1681411579.350722) vcan0 115#458AA64EDE23F973
(1681411579.350721) vcan0 104#1A3895497ACA224A
(1681411579.350761) vcan0 108#FD792072BCD0A321
(1681411579.350762) vcan0 121#A0E92D15973F7A01
(1681411579.350779) vcan0 100#7A1B794A99503A67
(1681411579.350786) vcan0 112#2FE78316A51FC75B
(1681411579.350815) vcan0 109#B9113D0651108D20
(1681411579.350820) vcan0 101#CF74AA0415347753
(1681411579.550878) vcan0 108#E62EC60AC2233A4C
(1681411579.550881) vcan0 105#A356584FEEB18449
(1681411579.550896) vcan0 118#84194657B99C8154
(1681411579.550900) vcan0 104#D8FD4E0161C1056C
(1681411579.550899) vcan0 115#58DD2F6ACC302373
(1681411579.550903) vcan0 114#02E2656B67132E3F
(1681411579.550905) vcan0 123#900A6D3687B24709
(1681411579.550907) vcan0 120#C23C67151EF44216
(1681411579.550946) vcan0 121#199A223C3ED80813
(1681411579.550948) vcan0 122#EB56B540A37A8825
(1681411579.550950) vcan0 103#3CEBEA58EB09EF74
(1681411579.550951) vcan0 117#FDD25A623D6C935F
(1681411579.550952) vcan0 106#CA468B7528BF8912
(1681411579.550954) vcan0 107#4F6AD15038BD7616
(1681411579.550955) vcan0 100#DF1AC342A6D0336F
(1681411579.550985) vcan0 101#5384D31B558C3B0D
(1681411579.550987) vcan0 112#FECD8608F20E0F13
(1681411579.550993) vcan0 124#512A6E1FDB214201
(1681411579.550994) vcan0 113#BF717D04F1429624
(1681411579.551010) vcan0 109#9ACF814274C37D67
(1681411579.551029) vcan0 125#E39CD42693100A54
(1681411579.551032) vcan0 119#951EEE6505524563
(1681411579.551031) vcan0 116#23642F127F94B930
(1681411579.551049) vcan0 111#A0A05D5905B2336C
(1681411579.551053) vcan0 110#48EFC81AF8D80B15
(1681411579.551063) vcan0 102#9AE68C5DB8EF1C2F
(1681411579.751585) vcan0 115#A77C63273552AB0C
(1681411579.751586) vcan0 125#EB53F37C6121E776
(1681411579.751587) vcan0 118#4DBD2E7F06AD296A
(1681411579.751588) vcan0 112#98403D0DF967BB13
(1681411579.751588) vcan0 105#8F473466C714E27C
(1681411579.751589) vcan0 103#F18ED06B95596D6A
(1681411579.751590) vcan0 113#CD50010E0177BB08
(1681411579.751591) vcan0 119#6E383C213742030B
(1681411579.751629) vcan0 101#712B1926C5ED416E
(1681411579.751630) vcan0 104#8588855826FF8408
(1681411579.751630) vcan0 102#34B74661C4CA3A21
(1681411579.751631) vcan0 109#BE31AC382BB53E1D
(1681411579.751631) vcan0 123#28DD4B3658C26234
(1681411579.751632) vcan0 116#C1390E734950D006
(1681411579.751634) vcan0 124#BEBD985A61C7750F
(1681411579.751645) vcan0 110#D5EF191E4A4FF13A
(1681411579.751648) vcan0 120#7B4D41757A5D200F
(1681411579.751648) vcan0 111#4CB33E55C347BC19
(1681411579.751649) vcan0 114#B098D9194DB4A048
(1681411579.751663) vcan0 108#E5FAA67D02E65E07
(1681411579.751665) vcan0 106#D0A1F446DCBBF629
(1681411579.751674) vcan0 121#3354B557A655015A
(1681411579.751676) vcan0 122#53C10C6E1FD30E21
(1681411579.751685) vcan0 107#180A706841C3B578
(1681411579.751689) vcan0 100#5E591F0A90B1E91E
(1681411579.751697) vcan0 117#67CEB91B05F9F31C
(1681411579.952298) vcan0 125#B8D65251E08CA506
(1681411579.952297) vcan0 107#D4C8856FD2E28618
(1681411579.952302) vcan0 119#FA7128692DA71F3C
(1681411579.952306) vcan0 121#6C9837417F9D3309
(1681411579.952304) vcan0 105#2924D06CEF86861F
(1681411579.952309) vcan0 118#16755E5C68D4FC7C
(1681411579.952310) vcan0 123#46A7CF1A49A52867
(1681411579.952312) vcan0 112#79F10F0260DFC910
(1681411579.952362) vcan0 120#4BDEF459D41AD15B
(1681411579.952366) vcan0 122#88859B1086B2B07E
(1681411579.952367) vcan0 115#A6EF783563BF2948
(1681411579.952368) vcan0 106#712DEF092B9DD067
(1681411579.952370) vcan0 103#8E41A01663984D67
(1681411579.952371) vcan0 110#B891030D7FC88E5D
(1681411579.952396) vcan0 111#5C8CFC687C8ACC08
(1681411579.952400) vcan0 100#FA78B879820C351A
(1681411579.952402) vcan0 117#DF7E0076423F1937
(1681411579.952409) vcan0 108#65D57C0E13A9D657
(1681411579.952410) vcan0 101#DA98A348E092BA51
(1681411579.952443) vcan0 113#63B50F6415CD6228
(1681411579.952454) vcan0 124#592005484FA37861
(1681411579.952453) vcan0 102#22CDFA37685CAD71
(1681411579.952458) vcan0 114#A1E37747588D905E
(1681411579.952483) vcan0 109#322E901E9B9C8A0A
(1681411579.952490) vcan0 116#9788574EEE520C46
(1681411579.952512) vcan0 104#85E84520D3441D35
(1681411580.153025) vcan0 100#3BAAB87CD90D1B78
(1681411580.153026) vcan0 105#C9765914494A8B66
(1681411580.153029) vcan0 118#44190E7AA618E800
(1681411580.153033) vcan0 124#5DB3875A34B1D134
(1681411580.153032) vcan0 121#947A9A63E0113A76
(1681411580.153038) vcan0 101#DBBDF9214F019C16
(1681411580.153036) vcan0 117#62576C49ABF50940
(1681411580.153040) vcan0 110#55A371612F5E743E
(1681411580.153090) vcan0 112#DEA6CF596CDC674F
(1681411580.153096) vcan0 119#61DE5D631F24365C
(1681411580.153097) vcan0 102#B3D0B3629BAFEE63
(1681411580.153098) vcan0 108#CF92792FEB81691D
(1681411580.153099) vcan0 123#8AC3557AEB378C44
(1681411580.153101) vcan0 120#8C9AB81BCD7C986B
(1681411580.153102) vcan0 107#5B62C61023D5B530
(1681411580.153133) vcan0 116#849A907F85B5367E
(1681411580.153135) vcan0 104#26858D220B015344
(1681411580.153140) vcan0 113#F76E8A097FC54717
(1681411580.153141) vcan0 111#D012422A65662566
(1681411580.153162) vcan0 114#79E60351C940CF2F
(1681411580.153164) vcan0 109#0BF64F57F49DA031
(1681411580.153178) vcan0 103#F39A707AD11CFF7E
(1681411580.153180) vcan0 122#3939CE0C4828E217
(1681411580.153204) vcan0 125#2B544500DAF63113
(1681411580.153211) vcan0 115#7BDCE40DF3F7BE79
(1681411580.153235) vcan0 106#4FE62E48B7FFFA6B
(1681411580.353760) vcan0 101#702BA9021968F570
(1681411580.353762) vcan0 115#2C66EF706B41281A
(1681411580.353765) vcan0 100#F83B606DBE89B944
(1681411580.353769) vcan0 104#294162595FE9D72E
(1681411580.353768) vcan0 113#17DC3F31E6FAF714
(1681411580.353771) vcan0 111#F901414ED5F3304B
(1681411580.353773) vcan0 107#8251AB4975C1B36C
(1681411580.353829) vcan0 118#7F20DC6946295A60
(1681411580.353831) vcan0 112#494D0556ABB4D965
(1681411580.353832) vcan0 114#4048D01458A2F975
(1681411580.353834) vcan0 117#03C0894B61EB8121
(1681411580.353836) vcan0 103#4AEF8D47C3C64A47
(1681411580.353835) vcan0 122#5BACF1741DB8961A
(1681411580.353869) vcan0 123#91D2B1792F547607
(1681411580.353869) vcan0 105#6A1D1D022EC33838
(1681411580.353874) vcan0 125#995F7223E432D230
(1681411580.353873) vcan0 110#A081927AE557DC13
(1681411580.353876) vcan0 124#E463F416D6C69C53
(1681411580.353903) vcan0 109#FE9A661E5FB26524
(1681411580.353905) vcan0 102#2E7B723C5C1DB74A
(1681411580.353935) vcan0 120#A068C236A2B4DD62
(1681411580.353938) vcan0 121#9A5A72575F8C1B6E
(1681411580.353939) vcan0 116#9BF1574769B3971B
(1681411580.353948) vcan0 106#D9C1825A0428FE43
(1681411580.353964) vcan0 108#2559E42969CC7606
(1681411580.353977) vcan0 119#ABF0D0294EA2CD29
(1681411580.554483) vcan0 124#81389D3E6A34E56E
(1681411580.554482) vcan0 116#F3B96A320C7C9E31
(1681411580.554488) vcan0 107#59AEFB3646790A39
(1681411580.554486) vcan0 105#400EC620AA5AC967
(1681411580.554491) vcan0 125#ABC2A15339FF2841
(1681411580.554492) vcan0 110#965DC47EA1CE3420
(1681411580.554497) vcan0 122#48D4E6357368CA35
(1681411580.554495) vcan0 104#C4317C0B3F89937C
(1681411580.554550) vcan0 120#D69DAF127055FA61
(1681411580.554551) vcan0 123#0A72CF5FCEED752B
(1681411580.554555) vcan0 106#0BCB157271907C02
(1681411580.554554) vcan0 113#A530AD5009A8DF66
(1681411580.554557) vcan0 109#31DE8609C97ABE4A
(1681411580.554557) vcan0 112#49D891171E169F67
(1681411580.554579) vcan0 115#7212BC2F80AA6A1C
(1681411580.554590) vcan0 100#09ABDE4223647A41
(1681411580.554589) vcan0 102#C07FB6565EC1646B
(1681411580.554593) vcan0 111#64C397337DF82D75
(1681411580.554596) vcan0 118#03740F7F29AE5271
(1681411580.554597) vcan0 101#A080BC21BAC4BB20
(1681411580.554621) vcan0 121#177D9F7161C5013F
(1681411580.554633) vcan0 108#1DF00002DCF39413
(1681411580.554637) vcan0 103#D0E8A3537D81086D
(1681411580.554656) vcan0 119#36F2006F8E99C167
(1681411580.554670) vcan0 114#5CC81576919EB40F
(1681411580.554695) vcan0 117#60FF0F33FCE43266
(1681411580.755210) vcan0 104#495100301CBC4E0B
(1681411580.755212) vcan0 100#A960E60774EE0148
(1681411580.755215) vcan0 115#70ACA6565D54D80C
(1681411580.755219) vcan0 123#DBF9BF673A496F70
(1681411580.755218) vcan0 125#247A431A1C22490B
(1681411580.755221) vcan0 111#765FED7FED055A18
(1681411580.755223) vcan0 116#11593A7A2AE1B551
(1681411580.755225) vcan0 112#252B442626253651
(1681411580.755278) vcan0 102#0F1609697194C72A
(1681411580.755282) vcan0 121#BA457E4985F39663
(1681411580.755282) vcan0 114#7FC8431DA0496940
(1681411580.755284) vcan0 106#B47BBE476D746D13
(1681411580.755286) vcan0 109#4D64F763DFCFD927
(1681411580.755287) vcan0 103#42D0F823C0724745
(1681411580.755288) vcan0 118#3AD7EC7F9F59CF36
(1681411580.755314) vcan0 107#617E2A176A63334B
(1681411580.755319) vcan0 124#C7630F0F0379103B
(1681411580.755320) vcan0 108#ED830A4293695B5D
(1681411580.755324) vcan0 110#93F7821C8AD59738
(1681411580.755323) vcan0 117#1B48623DD46EDA49
(1681411580.755327) vcan0 122#D0117A10E8019C06
(1681411580.755326) vcan0 101#EC5E3476471C897C
(1681411580.755355) vcan0 119#EC8D38501CD08332
(1681411580.755360) vcan0 113#1DE65900CD828A4F
(1681411580.755390) vcan0 120#8DFAD87AECCEE335
(1681411580.755411) vcan0 105#7A2EDC6A25F5F058
(1681411580.955919) vcan0 124#EA6C70143685AE10
(1681411580.955922) vcan0 122#EC060F0BD20CB626
(1681411580.955924) vcan0 101#D12CDC2FC626337B
(1681411580.955928) vcan0 107#CD95E26E4E4BB431
(1681411580.955932) vcan0 108#242E0E6687742F23
(1681411580.955930) vcan0 117#64FD6345163E9116
(1681411580.955934) vcan0 110#876B882D33C68872
(1681411580.955935) vcan0 102#16119B77EE841C73
(1681411580.955988) vcan0 115#C03B1E40094D6E60
(1681411580.955989) vcan0 114#1F780D0109F9E343
(1681411580.955991) vcan0 123#ED88BA47684B0853
(1681411580.955993) vcan0 104#4E68D0791A9E721A
(1681411580.955992) vcan0 112#3947DF7C2DFD5C66
(1681411580.955995) vcan0 111#07CD0658FB3CB605
(1681411580.955996) vcan0 113#D6216A50259C3B6F
(1681411580.956027) vcan0 119#9463BB4064F2C039
(1681411580.956029) vcan0 106#300F6869EAB1DF0E
(1681411580.956028) vcan0 120#A6FA8D2E8D7E4D1C
(1681411580.956031) vcan0 125#C0F509029402CC6A
(1681411580.956083) vcan0 105#0C36FE7852DE2024
(1681411580.956084) vcan0 103#FE6C9E78ED4B3011
(1681411580.956093) vcan0 116#FD5FF93B063F8E40
(1681411580.956102) vcan0 121#C7A1C83AE1824909
(1681411580.956108) vcan0 109#23CB154C07348C76
(1681411580.956122) vcan0 100#593EDE41BAAB3728
(1681411580.956143) vcan0 118#B09B65090EFD1D0E
(1681411581.156632) vcan0 110#129BDF16DB8DAF2B
(1681411581.156633) vcan0 113#9A4FFD4A214AB64A
(1681411581.156635) vcan0 122#9E1D4B184C9EE74C
(1681411581.156637) vcan0 119#585EF075F059FA11
(1681411581.156639) vcan0 102#F998672120519371
(1681411581.156638) vcan0 107#033E870A758E7973
(1681411581.156640) vcan0 101#A873C24C9646EF3C
(1681411581.156641) vcan0 115#F565DD12709CEC58
(1681411581.156692) vcan0 125#75DCAB70A0B27E7C
(1681411581.156693) vcan0 108#B8AC807B3B542C16
(1681411581.156694) vcan0 112#66DD724E49477D00
(1681411581.156695) vcan0 100#26CF8353BD31AF25
(1681411581.156697) vcan0 106#0C86BC17CBAB9D42
(1681411581.156696) vcan0 120#E2C24558F7601E18
(1681411581.156712) vcan0 117#A8DC5760A3BA1B5F
(1681411581.156721) vcan0 116#7810F405F246E022
(1681411581.156725) vcan0 105#34DE4F799F2D9924
(1681411581.156725) vcan0 103#7A3D6B4D13052C11
(1681411581.156726) vcan0 121#6FA74C6EC0299904
(1681411581.156727) vcan0 109#DAD1B07B8B77562C
(1681411581.156750) vcan0 124#F359FE030F9BE830
(1681411581.156753) vcan0 118#4FE2760E95F74730
(1681411581.156753) vcan0 114#58DF7D4B06FA6657
(1681411581.156780) vcan0 111#B2418476140D5372
(1681411581.156780) vcan0 123#B676922844CD8651
(1681411581.156793) vcan0 104#3A7DC27C6532CC79
(1681411581.357348) vcan0 102#AE5DF67BC24CE82B
(1681411581.357347) vcan0 121#73992E0CB7955D19
(1681411581.357351) vcan0 110#2BCE723960306D11
(1681411581.357355) vcan0 114#970C6E47059F0E71
(1681411581.357353) vcan0 101#3C60C26D78F57153
(1681411581.357357) vcan0 123#6A5B75491B5A6C31
(1681411581.357361) vcan0 119#3C3B2278365CF405
(1681411581.357362) vcan0 115#69C1D9541624F27B
(1681411581.357414) vcan0 107#AA107B56FD10E12A
(1681411581.357416) vcan0 109#2B900F3D2F5CC349
(1681411581.357417) vcan0 118#EA440E1240AA5A7C
(1681411581.357418) vcan0 113#0A541F6E2490B437
(1681411581.357420) vcan0 122#1660DE408B026D7C
(1681411581.357421) vcan0 105#5B498B1DA0B94934
(1681411581.357423) vcan0 116#72E2125792DB9606
(1681411581.357424) vcan0 100#66F4B42D97CC1B1F
(1681411581.357455) vcan0 104#4EB81018B1A88249
(1681411581.357461) vcan0 111#7031F95638655D08
(1681411581.357460) vcan0 103#49C5426E15464F2F
(1681411581.357464) vcan0 124#99373A23E211DF35
(1681411581.357465) vcan0 117#411EFF0A63A95809
(1681411581.357501) vcan0 108#BF71FF376020F321
(1681411581.357510) vcan0 112#FD8DD0708A19E915
(1681411581.357520) vcan0 120#D36D0A4ED49B4361
(1681411581.357547) vcan0 125#6C6AC9282025083C
(1681411581.357562) vcan0 106#D8DBF37007A47508
(1681411581.557513) vcan0 110#D85E5A4CC515E44D
(1681411581.557533) vcan0 114#668E4534D39E1000
(1681411581.557543) vcan0 115#D10D94281DFB1601
(1681411581.557542) vcan0 119#F106E2336AD8E069
(1681411581.557555) vcan0 107#3C609D72D2182206
(1681411581.557554) vcan0 109#6405A94C944A1845
(1681411581.557585) vcan0 113#CF94F56F9148086A
(1681411581.557583) vcan0 105#E7D8DE7FBB9D8F1A
(1681411581.557578) vcan0 104#3D978B365D983940
(1681411581.557592) vcan0 117#FA9751256A0D117C
(1681411581.557591) vcan0 124#1B9B362D8CB8EA2E
(1681411581.557601) vcan0 100#487863333D13F220
(1681411581.557613) vcan0 121#745BCB3476674A32
(1681411581.557627) vcan0 120#8A6FE04647A55447
(1681411581.557632) vcan0 111#94520775B911E640
(1681411581.557633) vcan0 122#30644B253000375C
(1681411581.557638) vcan0 102#565ABF0C6F46FE75
(1681411581.557658) vcan0 108#11865C78C2E9670E
(1681411581.557667) vcan0 118#A0BDBD65F178DC2B
(1681411581.557670) vcan0 123#1A3D264CB9003E0E
(1681411581.557696) vcan0 103#B809855AFF1F1D68
(1681411581.557699) vcan0 101#E0187B09AF8AEC56
(1681411581.557698) vcan0 106#247221364B5AB21B
(1681411581.557701) vcan0 116#B5D2C40FD29C9E1E
(1681411581.557703) vcan0 112#75FFC412799F4900
(1681411581.557731) vcan0 125#7B3F6B3A74AE4C1C
(1681411581.757803) vcan0 112#9B533E176D54334B
(1681411581.757800) vcan0 119#2DD8667CD163DB5F
(1681411581.757809) vcan0 115#B0B2595402B7532F
(1681411581.757807) vcan0 105#E7D5026D82FE2533
(1681411581.757812) vcan0 109#512D622D7E134D00
(1681411581.757813) vcan0 108#1CE1A3049C12CF19
(1681411581.757815) vcan0 117#E46D42102F04BA6C
(1681411581.757817) vcan0 113#24B508121EEF7843
(1681411581.757864) vcan0 118#9A828865C25D492C
(1681411581.757871) vcan0 124#6FCA4149EEB24D45
(1681411581.757872) vcan0 103#41F78F181F93B24E
(1681411581.757873) vcan0 125#F612150DEFC8CC0A
(1681411581.757875) vcan0 102#0638422AE201A661
(1681411581.757876) vcan0 107#C2FD9646DB567A0F
(1681411581.757887) vcan0 101#248E6731D3393F0D
(1681411581.757900) vcan0 110#C1563220824C7476
(1681411581.757911) vcan0 122#32026679F4533314
(1681411581.757913) vcan0 123#98D65F47CB4CD210
(1681411581.757915) vcan0 116#870CCC530EECDA5C
(1681411581.757914) vcan0 106#B6451076A8C5257C
(1681411581.757960) vcan0 120#2A42510D441ECD5A
(1681411581.757962) vcan0 100#2294E2262EDA230A
(1681411581.757987) vcan0 114#ED77D85D19DB9304
(1681411581.757991) vcan0 104#E23CE450B2F82A29
(1681411581.758017) vcan0 111#3AB21646F4675355
(1681411581.758022) vcan0 121#2B9F94340D3EF52F
(1681411581.958077) vcan0 119#96A1FD3A4CB96D36
(1681411581.958080) vcan0 113#1549C209064E3964
(1681411581.958088) vcan0 110#E3304F7C6654720F
(1681411581.958086) vcan0 116#70069C247D6E9A3D
(1681411581.958085) vcan0 106#1531EE7523CDC72F
(1681411581.958091) vcan0 100#E098EC57F8987406
(1681411581.958090) vcan0 124#08D1075D1B14335F
(1681411581.958082) vcan0 117#7319CE31B98E481F
(1681411581.958139) vcan0 115#4DF5451DE4218D7A
(1681411581.958142) vcan0 111#18A0792CB0587E21
(1681411581.958143) vcan0 123#B330B87E525A3312
(1681411581.958145) vcan0 108#FB8C1F3ED31F7A34
(1681411581.958146) vcan0 109#79D528263E2D4316
(1681411581.958148) vcan0 125#8297755A9F18C026
(1681411581.958149) vcan0 122#680BF476A6209E08
(1681411581.958178) vcan0 120#27E9175F9BFBDD5A
(1681411581.958181) vcan0 104#33DF272DB65CAC74
(1681411581.958190) vcan0 118#DEBD796B8F8BC445
(1681411581.958189) vcan0 112#EB74026EB54F5236
(1681411581.958207) vcan0 105#BC04C60CF837092B
(1681411581.958217) vcan0 114#7B774723D90EBE5F
(1681411581.958224) vcan0 103#6DB9B814C9C9C55A
(1681411581.958225) vcan0 101#3F14D53E16BDCF57
(1681411581.958226) vcan0 121#F629D2374729C040
(1681411581.958243) vcan0 102#4E9F8402736FC374
(1681411581.958257) vcan0 107#BD9291481B772021
(1681411582.158349) vcan0 116#59FD3B0730FA5826
(1681411582.158351) vcan0 122#CE79280B9942E93A
(1681411582.158356) vcan0 106#1D58A74A6C78AD56
(1681411582.158355) vcan0 115#4AEBBD4D46F46F15
(1681411582.158361) vcan0 125#FAB06A16F188AC1D
(1681411582.158362) vcan0 123#556336446B47A23C
(1681411582.158359) vcan0 111#274F1F6966F66F3E
(1681411582.158364) vcan0 120#4C2784102AA5EB79
(1681411582.158415) vcan0 124#A9BD234F0F48EA35
(1681411582.158416) vcan0 121#8EE4335249704841
(1681411582.158418) vcan0 109#D3778C01D3F0A35B
(1681411582.158418) vcan0 108#0052B63729D1E320
(1681411582.158420) vcan0 114#B295923D554C9329
(1681411582.158422) vcan0 105#3E6D757D3446BB13
(1681411582.158423) vcan0 104#CDE6B80D4E731D38
(1681411582.158454) vcan0 117#D93F5E2F6964E44B
(1681411582.158454) vcan0 118#97D055652A7F0502
(1681411582.158459) vcan0 119#1C061A6986E81B7B
(1681411582.158461) vcan0 102#F9AFC94E8018A617
(1681411582.158460) vcan0 113#DC4592269803D02C
(1681411582.158488) vcan0 107#C155E97A86F66800
